Time [s], Analyzer Name, Decoded Protocol Result,,,,Register,Sub-Register,Read,Write,Comment
0,I2C,Setup Write to [0x69] + ACK,,,,,,,,
0.000027768,I2C,0x7F + ACK,,,,REG_BANK_SEL,,,,"We are accessing the register bank 0, which in this case are adressed 0x00 to 0x7F"
0.000054956,I2C,0x00 + ACK,,,,,0x00,,,
0.000113072,I2C,Setup Write to [0x69] + ACK,,,,,,,,
0.000140776,I2C,0x00 + ACK,,,,WHO_AM_I,,,,"We are now looking at adress 0x00 in register bank 0, which is the WHO_AM_I. We are supposed to obtain 0xEA, which we do."
0.000174712,I2C,Setup Read to [0x69] + ACK,,,,,,,,
0.0002014,I2C,0xEA + NAK,,,,,,0xEA,,
0.000278272,I2C,Setup Write to [0x69] + ACK,,,,,,,,
0.00030604,I2C,0x7F + ACK,,,,REG_BANK_SEL,,,,Accessing once again the register bank 0
0.000333228,I2C,0x00 + ACK,,,,,0x00,,,
0.000391344,I2C,Setup Write to [0x69] + ACK,,,,,,,,
0.000419112,I2C,0x06 + ACK,,,,PWR_MGMT_1,,,,"We are now setting up the power management of the module. We check to see if the values present are correct. If they are not, we change them to 0x81, which is the case."
0.00045286,I2C,Setup Read to [0x69] + ACK,,,,,,,,
0.000479552,I2C,0x01 + NAK,,,,,,0x01,,
0.000552668,I2C,Setup Write to [0x69] + ACK,,,,,,,,
0.000580436,I2C,0x06 + ACK,,,,PWR_MGMT_1,,,,
0.000607624,I2C,0x81 + ACK,,,,,,,0x81,
0.050687188,I2C,Setup Write to [0x69] + ACK,,,,,,,,
0.050714956,I2C,0x7F + ACK,,,,REG_BANK_SEL,,,,
0.050742144,I2C,0x00 + ACK,,,,,0x00,,,
0.050800264,I2C,Setup Write to [0x69] + ACK,,,,,,,,
0.050827964,I2C,0x06 + ACK,,,,PWR_MGMT_1,,,,
0.0508619,I2C,Setup Read to [0x69] + ACK,,,,,,,,
0.050888596,I2C,0x41 + NAK,,,,,,,,
0.050961712,I2C,Setup Write to [0x69] + ACK,,,,,,,,
0.05098948,I2C,0x06 + ACK,,,,PWR_MGMT_1,,,,
0.051016668,I2C,0x01 + ACK,,,,,0x01,,,
0.051087344,I2C,Setup Write to [0x69] + ACK,,,,,,,,
0.051115112,I2C,0x7F + ACK,,,,,,,,
0.051142304,I2C,0x00 + ACK,,,,,,,,
0.051200356,I2C,Setup Write to [0x69] + ACK,,,,,,,,
0.05122812,I2C,0x06 + ACK,,,,,,,,
0.051261872,I2C,Setup Read to [0x69] + ACK,,,,,,,,
0.051288564,I2C,0x01 + NAK,,,,,,,,
0.051361684,I2C,Setup Write to [0x69] + ACK,,,,,,,,
0.051389444,I2C,0x06 + ACK,,,,,,,,
0.051416636,I2C,0x01 + ACK,,,,,,,,
0.051488568,I2C,Setup Write to [0x69] + ACK,,,,,,,,
0.051516332,I2C,0x7F + ACK,,,,REG_BANK_SEL,,,,
0.051543524,I2C,0x00 + ACK,,,,,,0x00,,
0.05160164,I2C,Setup Write to [0x69] + ACK,,,,,,,,
0.051629404,I2C,0x05 + ACK,,,,LP_CONFIG,,,,
0.05166334,I2C,Setup Read to [0x69] + ACK,,,,,,,,
0.051690036,I2C,0x40 + NAK,,,,,,0x40,,
0.05176434,I2C,Setup Write to [0x69] + ACK,,,,,,,,
0.051792104,I2C,0x05 + ACK,,,,,,,,
0.051819292,I2C,0x40 + ACK,,,,,,,,
0.051891224,I2C,Setup Write to [0x69] + ACK,,,,,,,,
0.051918988,I2C,0x7F + ACK,,,,REG_BANK_SEL,,,,We are now accessing bank 2
0.05194618,I2C,0x20 + ACK,,,,,,0x20,,
0.052004296,I2C,Setup Write to [0x69] + ACK,,,,,,,,
0.05203206,I2C,0x14 + ACK,,,,ACCEL_CONFIG,,,,
0.052065996,I2C,Setup Read to [0x69] + ACK,,,,,,,,
0.052092688,I2C,0x01 + NAK,,,,,0x01,,,
0.052165744,I2C,Setup Write to [0x69] + ACK,,,,,,,,
0.052193448,I2C,0x14 + ACK,,,,,,,,
0.052220636,I2C,0x01 + ACK,,,,,,0x01,,
0.052287504,I2C,Setup Write to [0x69] + ACK,,,,,,,,
0.052315272,I2C,0x7F + ACK,,,,REG_BANK_SEL,,,,
0.05234246,I2C,0x20 + ACK,,,,,,0x20,,
0.052400576,I2C,Setup Write to [0x69] + ACK,,,,,,,,
0.05242834,I2C,0x01 + ACK,,,,GYRO_CONFIG_1,,,,
0.05246228,I2C,Setup Read to [0x69] + ACK,,,,,,,,
0.052488972,I2C,0x01 + NAK,,,,,0x01,,,
0.052562088,I2C,Setup Write to [0x69] + ACK,,,,,,,,
0.052589852,I2C,0x01 + ACK,,,,,,,,
0.052617044,I2C,0x01 + ACK,,,,,,0x01,,
0.05269016,I2C,Setup Write to [0x69] + ACK,,,,,,,,
0.052717864,I2C,0x7F + ACK,,,,REG_BANK_SEL,,,,
0.052745056,I2C,0x20 + ACK,,,,,,0x20,,
0.052803232,I2C,Setup Write to [0x69] + ACK,,,,,,,,
0.052831,I2C,0x14 + ACK,,,,ACCEL_CONFIG,,,,
0.052864748,I2C,Setup Read to [0x69] + ACK,,,,,,,,
0.052891444,I2C,0x01 + NAK,,,,,,,,
0.052964492,I2C,Setup Write to [0x69] + ACK,,,,,,,,
0.05299226,I2C,0x14 + ACK,,,,,,,,
0.053019448,I2C,0x39 + ACK,,,,,,0x39,,
0.053087568,I2C,Setup Write to [0x69] + ACK,,,,,,,,
0.053115332,I2C,0x7F + ACK,,,,REG_BANK_SEL,,,,
0.053142524,I2C,0x20 + ACK,,,,,,0x20,,
0.053200704,I2C,Setup Write to [0x69] + ACK,,,,,,,,
0.053228404,I2C,0x01 + ACK,,,,GYRO_CONFIG_1,,,,
0.05326234,I2C,Setup Read to [0x69] + ACK,,,,,,0x01,,
0.053289036,I2C,0x01 + NAK,,,,,,,,
0.053362088,I2C,Setup Write to [0x69] + ACK,,,,,,,,
0.053389856,I2C,0x01 + ACK,,,,,,,,
0.053417044,I2C,0x39 + ACK,,,,,,0x39,,
0.053488976,I2C,Setup Write to [0x69] + ACK,,,,,,,,
0.05351674,I2C,0x7F + ACK,,,,REG_BANK_SEL,,,,
0.053543928,I2C,0x20 + ACK,,,,,,0x20,,
0.053602108,I2C,Setup Write to [0x69] + ACK,,,,,,,,
0.053629876,I2C,0x14 + ACK,,,,ACCEL_CONFIG,,,,
0.053663624,I2C,Setup Read to [0x69] + ACK,,,,,,,,
0.053690316,I2C,0x39 + NAK,,,,,,,,
0.053763372,I2C,Setup Write to [0x69] + ACK,,,,,,,,
0.053791136,I2C,0x14 + ACK,,,,,,,,
0.053818324,I2C,0x38 + ACK,,,,,,0x38,,
0.053890192,I2C,Setup Write to [0x69] + ACK,,,,,,,,
0.05391796,I2C,0x7F + ACK,,,,REG_BANK_SEL,,,,
0.053945148,I2C,0x20 + ACK,,,,,,0x20,,
0.054003328,I2C,Setup Write to [0x69] + ACK,,,,,,,,
0.054031092,I2C,0x01 + ACK,,,,GYRO_CONFIG_1,,,,
0.05406484,I2C,Setup Read to [0x69] + ACK,,,,,,,,
0.054091536,I2C,0x39 + NAK,,,,,,,,
0.054164592,I2C,Setup Write to [0x69] + ACK,,,,,,,,
0.054192356,I2C,0x01 + ACK,,,,,,,,
0.054219544,I2C,0x38 + ACK,,,,,,0x38,,
0.054291348,I2C,Setup Write to [0x69] + ACK,,,,,,,,
0.054319116,I2C,0x7F + ACK,,,,,,,,
0.054346304,I2C,0x00 + ACK,,,,,,,,
0.054404424,I2C,Setup Write to [0x69] + ACK,,,,,,,,
0.054432188,I2C,0x0F + ACK,,,,INT_PIN_CFG,,,,
0.054466124,I2C,Setup Read to [0x69] + ACK,,,,,,,,
0.054492816,I2C,0x00 + NAK,,,,,,,,
0.054565936,I2C,Setup Write to [0x69] + ACK,,,,,,,,
0.0545937,I2C,0x0F + ACK,,,,,,,,
0.054620888,I2C,0x02 + ACK,,,,,,0x02,,
0.054685296,I2C,Setup Write to [0x0C] + ACK,,,,,,,,This is the magnetometer
0.054713068,I2C,0x31 + ACK,,,,CNTL2,,,,
0.05474026,I2C,0x08 + ACK,,,,,,,,
0.055425916,I2C,Setup Write to [0x69] + ACK,,,,,,,,
0.055453692,I2C,0x7F + ACK,,,,,,,,
0.05548088,I2C,0x00 + ACK,,,,,,,,
0.055538988,I2C,Setup Write to [0x69] + ACK,,,,,,,,
0.055566764,I2C,0x06 + ACK,,,,PWR_MGMT_1,,,,
0.055600512,I2C,Setup Read to [0x69] + ACK,,,,,,,,
0.055627204,I2C,0x01 + NAK,,,,,,,,
0.055700316,I2C,Setup Write to [0x69] + ACK,,,,,,,,
0.055733592,I2C,0x06 + ACK,,,,,,,,
0.05576078,I2C,0x81 + ACK,,,,,,0x81,,
0.305856152,I2C,Setup Write to [0x69] + ACK,,,,,,,,
0.30588392,I2C,0x7F + ACK,,,,,,,,
0.305911108,I2C,0x00 + ACK,,,,,,,,
0.305969224,I2C,Setup Write to [0x69] + ACK,,,,,,,,
0.305996988,I2C,0x06 + ACK,,,,PWR_MGMT_1,,,,
0.30603074,I2C,Setup Read to [0x69] + ACK,,,,,,,,
0.306057432,I2C,0x41 + NAK,,,,,,,,
0.306130548,I2C,Setup Write to [0x69] + ACK,,,,,,,,
0.306158312,I2C,0x06 + ACK,,,,,,,,
0.306185504,I2C,0x01 + ACK,,,,,,0x01,,
0.306254872,I2C,Setup Write to [0x69] + ACK,,,,,,,,
0.30628264,I2C,0x7F + ACK,,,,,,,,
0.306309828,I2C,0x00 + ACK,,,,,,,,
0.306367944,I2C,Setup Write to [0x69] + ACK,,,,,,,,
0.306395648,I2C,0x06 + ACK,,,,PWR_MGMT_1,,,,
0.306429584,I2C,Setup Read to [0x69] + ACK,,,,,,,,
0.306456276,I2C,0x01 + NAK,,,,,,,,
0.306529392,I2C,Setup Write to [0x69] + ACK,,,,,,,,
0.306557156,I2C,0x06 + ACK,,,,,,,,
0.306584348,I2C,0x01 + ACK,,,,,,,,
0.306654968,I2C,Setup Write to [0x69] + ACK,,,,,,,,
0.306682732,I2C,0x7F + ACK,,,,,,,,
0.30670992,I2C,0x00 + ACK,,,,,,,,
0.306768036,I2C,Setup Write to [0x69] + ACK,,,,,,,,
0.306795804,I2C,0x05 + ACK,,,,LP_CONFIG,,,,
0.306829552,I2C,Setup Read to [0x69] + ACK,,,,,,,,
0.306856248,I2C,0x40 + NAK,,,,,,,,
0.306930548,I2C,Setup Write to [0x69] + ACK,,,,,,,,
0.306958316,I2C,0x05 + ACK,,,,,,,,
0.306985504,I2C,0x40 + ACK,,,,,0x40,,,
0.307057372,I2C,Setup Write to [0x69] + ACK,,,,,,,,
0.307085072,I2C,0x7F + ACK,,,,,,,,
0.307112264,I2C,0x20 + ACK,,,,,,,,
0.307170444,I2C,Setup Write to [0x69] + ACK,,,,,,,,
0.307198148,I2C,0x14 + ACK,,,,ACCEL_CONFIG,,,,
0.307232084,I2C,Setup Read to [0x69] + ACK,,,,,,,,
0.30725878,I2C,0x01 + NAK,,,,,,,,
0.307331832,I2C,Setup Write to [0x69] + ACK,,,,,,,,
0.307359532,I2C,0x14 + ACK,,,,,,,,
0.307386724,I2C,0x01 + ACK,,,,,0x01,,,
0.30745484,I2C,Setup Write to [0x69] + ACK,,,,,,,,
0.307482604,I2C,0x7F + ACK,,,,,,,,
0.307509796,I2C,0x20 + ACK,,,,,,,,
0.307567976,I2C,Setup Write to [0x69] + ACK,,,,,,,,
0.30759574,I2C,0x01 + ACK,,,,GYRO_CONFIG_1,,,,
0.307629488,I2C,Setup Read to [0x69] + ACK,,,,,,,,
0.307656184,I2C,0x01 + NAK,,,,,,,,
0.3077293,I2C,Setup Write to [0x69] + ACK,,,,,,,,
0.307757064,I2C,0x01 + ACK,,,,,,,,
0.307784256,I2C,0x01 + ACK,,,,,,0x01,,
0.307857372,I2C,Setup Write to [0x69] + ACK,,,,,,,,
0.307885076,I2C,0x7F + ACK,,,,,,,,
0.307912264,I2C,0x20 + ACK,,,,,,,,
0.307970448,I2C,Setup Write to [0x69] + ACK,,,,,,,,
0.307998208,I2C,0x14 + ACK,,,,ACCEL_CONFIG,,,,
0.308031956,I2C,Setup Read to [0x69] + ACK,,,,,,,,
0.308058652,I2C,0x01 + NAK,,,,,,,,
0.308131708,I2C,Setup Write to [0x69] + ACK,,,,,,,,
0.308159472,I2C,0x14 + ACK,,,,,,,,
0.30818666,I2C,0x39 + ACK,,,,,,0x39,,
0.308253528,I2C,Setup Write to [0x69] + ACK,,,,,,,,
0.308281296,I2C,0x7F + ACK,,,,,,,,
0.308308484,I2C,0x20 + ACK,,,,,,,,
0.3083666,I2C,Setup Write to [0x69] + ACK,,,,,,,,
0.308394364,I2C,0x01 + ACK,,,,GYRO_CONFIG_1,,,,
0.308428304,I2C,Setup Read to [0x69] + ACK,,,,,,,,
0.308454996,I2C,0x01 + NAK,,,,,,,,
0.308528052,I2C,Setup Write to [0x69] + ACK,,,,,,,,
0.308555816,I2C,0x01 + ACK,,,,,,,,
0.308583008,I2C,0x39 + ACK,,,,,,0x39,,
0.308654872,I2C,Setup Write to [0x69] + ACK,,,,,,,,
0.30868264,I2C,0x7F + ACK,,,,,,,,
0.308709828,I2C,0x20 + ACK,,,,,,,,
0.308767944,I2C,Setup Write to [0x69] + ACK,,,,,,,,
0.308795708,I2C,0x14 + ACK,,,,ACCEL_CONFIG,,,,
0.308829648,I2C,Setup Read to [0x69] + ACK,,,,,,,,
0.30885634,I2C,0x39 + NAK,,,,,,,,
0.308929396,I2C,Setup Write to [0x69] + ACK,,,,,,,,
0.30895716,I2C,0x14 + ACK,,,,,,,,
0.308984352,I2C,0x38 + ACK,,,,,,0x38,,
0.309056216,I2C,Setup Write to [0x69] + ACK,,,,,,,,
0.30908392,I2C,0x7F + ACK,,,,,,,,
0.309111108,I2C,0x20 + ACK,,,,,,,,
0.309169288,I2C,Setup Write to [0x69] + ACK,,,,,,,,
0.309197052,I2C,0x01 + ACK,,,,GYRO_CONFIG_1,,,,
0.309235932,I2C,Setup Read to [0x69] + ACK,,,,,,,,
0.309262624,I2C,0x39 + NAK,,,,,,,,
0.309335676,I2C,Setup Write to [0x69] + ACK,,,,,,,,
0.309363444,I2C,0x01 + ACK,,,,,,,,
0.309390632,I2C,0x38 + ACK,,,,,,0x38,,
0.315089192,I2C,Setup Write to [0x69] + ACK,,,,,,,,
0.31511696,I2C,0x7F + ACK,,,,,,,,
0.315144148,I2C,0x00 + ACK,,,,,,,,
0.315202328,I2C,Setup Write to [0x69] + ACK,,,,,,,,
0.315230092,I2C,0x1A + ACK,,,,INT_STATUS_1,,,,
0.31526384,I2C,Setup Read to [0x69] + ACK,,,,,,,,
0.315290532,I2C,0x00 + NAK,,,,,,,,
0.816666988,I2C,Setup Write to [0x69] + ACK,,,,,,,,
0.816694752,I2C,0x7F + ACK,,,,,,,,
0.81672194,I2C,0x00 + ACK,,,,,,,,
0.816780124,I2C,Setup Write to [0x69] + ACK,,,,,,,,
0.816807888,I2C,0x1A + ACK,,,,INT_STATUS_1,,,,
0.816841636,I2C,Setup Read to [0x69] + ACK,,,,,,,,
0.816868328,I2C,0x01 + NAK,,,,,,,,
0.816943944,I2C,Setup Write to [0x69] + ACK,,,,,,,,
0.816971712,I2C,0x7F + ACK,,,,,,,,
0.816998904,I2C,0x00 + ACK,,,,,,,,
0.817057016,I2C,Setup Write to [0x69] + ACK,,,,,,,,
0.81708472,I2C,0x2D + ACK,,,,ACCEL_XOUT_H,,,,
0.817118656,I2C,Setup Read to [0x69] + ACK,,,,,,,,
0.817145284,I2C,0xFF + ACK,,,,,,,,
0.817173792,I2C,0x80 + ACK,,,,,,,,
0.817201544,I2C,0xFF + ACK,,,,,,,,
0.8172293,I2C,0x20 + ACK,,,,,,,,
0.817257048,I2C,0x40 + ACK,,,,,,,,
0.8172848,I2C,0xF0 + ACK,,,,,,,,
0.817312556,I2C,0x00 + ACK,,,,,,,,
0.817340308,I2C,0x07 + ACK,,,,,,,,
0.817368056,I2C,0xFF + ACK,,,,,,,,
0.817395808,I2C,0xEC + ACK,,,,,,,,
0.817423564,I2C,0x02 + ACK,,,,,,,,
0.817451316,I2C,0x33 + ACK,,,,,,,,
0.817479068,I2C,0x04 + ACK,,,,,,,,
0.81750688,I2C,0x80 + NAK,,,,,,,,
0.817635,I2C,Setup Write to [0x69] + ACK,,,,,,,,
0.817662764,I2C,0x7F + ACK,,,,,,,,
0.817689956,I2C,0x20 + ACK,,,,,,,,
0.817748072,I2C,Setup Write to [0x69] + ACK,,,,,,,,
0.81777584,I2C,0x14 + ACK,,,,ACCEL_CONFIG,,,,
0.817809588,I2C,Setup Read to [0x69] + ACK,,,,,,,,
0.81783628,I2C,0x38 + NAK,,,,,,,,
0.817911836,I2C,Setup Write to [0x69] + ACK,,,,,,,,
0.81793954,I2C,0x7F + ACK,,,,,,,,
0.817966728,I2C,0x20 + ACK,,,,,,,,
0.818024844,I2C,Setup Write to [0x69] + ACK,,,,,,,,
0.818052608,I2C,0x01 + ACK,,,,GYRO_CONFIG_1,,,,
0.818086548,I2C,Setup Read to [0x69] + ACK,,,,,,,,
0.81811324,I2C,0x38 + NAK,,,,,,,,
0.818178796,I2C,Setup Write to [0x69] + ACK,,,,,,,,
0.81820656,I2C,0x15 + ACK,,,,,,,,
0.818240308,I2C,Setup Read to [0x69] + ACK,,,,,,,,
0.818267004,I2C,0x00 + NAK,,,,,,,,
0.818331368,I2C,Setup Write to [0x0C] + NAK,,,,,,,,
0.818375876,I2C,Setup Read to [0x0C] + NAK,,,,,,,,
0.857407204,I2C,Setup Write to [0x69] + ACK,,,,,,,,
0.857434968,I2C,0x7F + ACK,,,,,,,,
0.85746216,I2C,0x00 + ACK,,,,,,,,
0.85752034,I2C,Setup Write to [0x69] + ACK,,,,,,,,
0.857548104,I2C,0x1A + ACK,,,,,,,,
0.85758204,I2C,Setup Read to [0x69] + ACK,,,,,,,,
0.857608732,I2C,0x01 + NAK,,,,,,,,
0.857684352,I2C,Setup Write to [0x69] + ACK,,,,,,,,
0.857712116,I2C,0x7F + ACK,,,,,,,,
0.857739304,I2C,0x00 + ACK,,,,,,,,
0.857797424,I2C,Setup Write to [0x69] + ACK,,,,,,,,
0.857825124,I2C,0x2D + ACK,,,,,,,,
0.85785906,I2C,Setup Read to [0x69] + ACK,,,,,,,,
0.857885692,I2C,0xFF + ACK,,,,,,,,
0.857913444,I2C,0x88 + ACK,,,,,,,,
0.857941196,I2C,0xFF + ACK,,,,,,,,
0.857968952,I2C,0x48 + ACK,,,,,,,,
0.857996708,I2C,0x40 + ACK,,,,,,,,
0.858024456,I2C,0xA0 + ACK,,,,,,,,
0.858052208,I2C,0x00 + ACK,,,,,,,,
0.85807996,I2C,0x3B + ACK,,,,,,,,
0.858107712,I2C,0xFF + ACK,,,,,,,,
0.858137028,I2C,0xB1 + ACK,,,,,,,,
0.85816478,I2C,0x01 + ACK,,,,,,,,
0.858192528,I2C,0x8E + ACK,,,,,,,,
0.858220284,I2C,0x04 + ACK,,,,,,,,
0.858248096,I2C,0xA0 + NAK,,,,,,,,
0.858376156,I2C,Setup Write to [0x69] + ACK,,,,,,,,
0.85840392,I2C,0x7F + ACK,,,,,,,,
0.858431112,I2C,0x20 + ACK,,,,,,,,
0.858489228,I2C,Setup Write to [0x69] + ACK,,,,,,,,
0.858516992,I2C,0x14 + ACK,,,,,,,,
0.858550932,I2C,Setup Read to [0x69] + ACK,,,,,,,,
0.858577624,I2C,0x38 + NAK,,,,,,,,
0.858653176,I2C,Setup Write to [0x69] + ACK,,,,,,,,
0.858680884,I2C,0x7F + ACK,,,,,,,,
0.858708068,I2C,0x20 + ACK,,,,,,,,
0.858766188,I2C,Setup Write to [0x69] + ACK,,,,,,,,
0.858793952,I2C,0x01 + ACK,,,,,,,,
0.858827888,I2C,Setup Read to [0x69] + ACK,,,,,,,,
0.85885458,I2C,0x38 + NAK,,,,,,,,
0.858920136,I2C,Setup Write to [0x69] + ACK,,,,,,,,
0.8589479,I2C,0x15 + ACK,,,,,,,,
0.85898184,I2C,Setup Read to [0x69] + ACK,,,,,,,,
0.859008532,I2C,0x00 + NAK,,,,,,,,
0.8590729,I2C,Setup Write to [0x0C] + NAK,,,,,,,,
0.859117408,I2C,Setup Read to [0x0C] + NAK,,,,,,,,
0.898154924,I2C,Setup Write to [0x69] + ACK,,,,,,,,
0.898182688,I2C,0x7F + ACK,,,,,,,,
0.898209876,I2C,0x00 + ACK,,,,,,,,
0.898268056,I2C,Setup Write to [0x69] + ACK,,,,,,,,
0.89829582,I2C,0x1A + ACK,,,,,,,,
0.898329572,I2C,Setup Read to [0x69] + ACK,,,,,,,,
0.898356264,I2C,0x01 + NAK,,,,,,,,
0.89843188,I2C,Setup Write to [0x69] + ACK,,,,,,,,
0.898459644,I2C,0x7F + ACK,,,,,,,,
0.898486836,I2C,0x00 + ACK,,,,,,,,
0.898544952,I2C,Setup Write to [0x69] + ACK,,,,,,,,
0.898572656,I2C,0x2D + ACK,,,,,,,,
0.898606592,I2C,Setup Read to [0x69] + ACK,,,,,,,,
0.89863322,I2C,0xFE + ACK,,,,,,,,
0.89866098,I2C,0x50 + ACK,,,,,,,,
0.898688728,I2C,0xFF + ACK,,,,,,,,
0.898716484,I2C,0x50 + ACK,,,,,,,,
0.898744236,I2C,0x40 + ACK,,,,,,,,
0.898771984,I2C,0x80 + ACK,,,,,,,,
0.898799736,I2C,0xFF + ACK,,,,,,,,
0.898827492,I2C,0x64 + ACK,,,,,,,,
0.89885524,I2C,0xFE + ACK,,,,,,,,
0.898882992,I2C,0xC7 + ACK,,,,,,,,
0.898910748,I2C,0x00 + ACK,,,,,,,,
0.8989385,I2C,0x68 + ACK,,,,,,,,
0.898966252,I2C,0x04 + ACK,,,,,,,,
0.898994064,I2C,0xD0 + NAK,,,,,,,,
0.899128372,I2C,Setup Write to [0x69] + ACK,,,,,,,,
0.89915614,I2C,0x7F + ACK,,,,,,,,
0.899183328,I2C,0x20 + ACK,,,,,,,,
0.899241444,I2C,Setup Write to [0x69] + ACK,,,,,,,,
0.899269208,I2C,0x14 + ACK,,,,,,,,
0.899303148,I2C,Setup Read to [0x69] + ACK,,,,,,,,
0.89932984,I2C,0x38 + NAK,,,,,,,,
0.899405396,I2C,Setup Write to [0x69] + ACK,,,,,,,,
0.8994331,I2C,0x7F + ACK,,,,,,,,
0.899460288,I2C,0x20 + ACK,,,,,,,,
0.899518404,I2C,Setup Write to [0x69] + ACK,,,,,,,,
0.899546172,I2C,0x01 + ACK,,,,,,,,
0.899580108,I2C,Setup Read to [0x69] + ACK,,,,,,,,
0.8996068,I2C,0x38 + NAK,,,,,,,,
0.899672352,I2C,Setup Write to [0x69] + ACK,,,,,,,,
0.89970012,I2C,0x15 + ACK,,,,,,,,
0.899734056,I2C,Setup Read to [0x69] + ACK,,,,,,,,
0.899760748,I2C,0x00 + NAK,,,,,,,,
0.89982512,I2C,Setup Write to [0x0C] + NAK,,,,,,,,
0.899869624,I2C,Setup Read to [0x0C] + NAK,,,,,,,,
0.9389022,I2C,Setup Write to [0x69] + ACK,,,,,,,,
0.938929968,I2C,0x7F + ACK,,,,,,,,
0.938957156,I2C,0x00 + ACK,,,,,,,,
0.939015336,I2C,Setup Write to [0x69] + ACK,,,,,,,,
0.939043104,I2C,0x1A + ACK,,,,,,,,
0.939076852,I2C,Setup Read to [0x69] + ACK,,,,,,,,
0.939103544,I2C,0x01 + NAK,,,,,,,,
0.93917916,I2C,Setup Write to [0x69] + ACK,,,,,,,,
0.939206928,I2C,0x7F + ACK,,,,,,,,
0.939234116,I2C,0x00 + ACK,,,,,,,,
0.939292232,I2C,Setup Write to [0x69] + ACK,,,,,,,,
0.939319936,I2C,0x2D + ACK,,,,,,,,
0.939353872,I2C,Setup Read to [0x69] + ACK,,,,,,,,
0.939380504,I2C,0xFF + ACK,,,,,,,,
0.93940826,I2C,0x60 + ACK,,,,,,,,
0.939436008,I2C,0xFF + ACK,,,,,,,,
0.93946376,I2C,0x88 + ACK,,,,,,,,
0.939491516,I2C,0x40 + ACK,,,,,,,,
0.939519264,I2C,0x48 + ACK,,,,,,,,
0.939547016,I2C,0xFF + ACK,,,,,,,,
0.939574768,I2C,0x8D + ACK,,,,,,,,
0.93960252,I2C,0x00 + ACK,,,,,,,,
0.939630272,I2C,0x9B + ACK,,,,,,,,
0.939658024,I2C,0x00 + ACK,,,,,,,,
0.93968578,I2C,0x1A + ACK,,,,,,,,
0.939713532,I2C,0x04 + ACK,,,,,,,,
0.939741344,I2C,0x80 + NAK,,,,,,,,
0.939869464,I2C,Setup Write to [0x69] + ACK,,,,,,,,
0.939897232,I2C,0x7F + ACK,,,,,,,,
0.93992442,I2C,0x20 + ACK,,,,,,,,
0.93998254,I2C,Setup Write to [0x69] + ACK,,,,,,,,
0.940010304,I2C,0x14 + ACK,,,,,,,,
0.940044052,I2C,Setup Read to [0x69] + ACK,,,,,,,,
0.940070744,I2C,0x38 + NAK,,,,,,,,
0.940145112,I2C,Setup Write to [0x69] + ACK,,,,,,,,
0.94017288,I2C,0x7F + ACK,,,,,,,,
0.940200068,I2C,0x20 + ACK,,,,,,,,
0.940258184,I2C,Setup Write to [0x69] + ACK,,,,,,,,
0.940285952,I2C,0x01 + ACK,,,,,,,,
0.940319888,I2C,Setup Read to [0x69] + ACK,,,,,,,,
0.94034658,I2C,0x38 + NAK,,,,,,,,
0.940412132,I2C,Setup Write to [0x69] + ACK,,,,,,,,
0.9404399,I2C,0x15 + ACK,,,,,,,,
0.940473836,I2C,Setup Read to [0x69] + ACK,,,,,,,,
0.940500528,I2C,0x00 + NAK,,,,,,,,
0.940564896,I2C,Setup Write to [0x0C] + NAK,,,,,,,,
0.940609404,I2C,Setup Read to [0x0C] + NAK,,,,,,,,
0.979640668,I2C,Setup Write to [0x69] + ACK,,,,,,,,
0.979668436,I2C,0x7F + ACK,,,,,,,,
0.979695624,I2C,0x00 + ACK,,,,,,,,
0.979753804,I2C,Setup Write to [0x69] + ACK,,,,,,,,
0.979781568,I2C,0x1A + ACK,,,,,,,,
0.979815504,I2C,Setup Read to [0x69] + ACK,,,,,,,,
0.979842196,I2C,0x01 + NAK,,,,,,,,
0.979917816,I2C,Setup Write to [0x69] + ACK,,,,,,,,
0.97994558,I2C,0x7F + ACK,,,,,,,,
0.979972768,I2C,0x00 + ACK,,,,,,,,
0.980033012,I2C,Setup Write to [0x69] + ACK,,,,,,,,
0.98006078,I2C,0x2D + ACK,,,,,,,,
0.980094528,I2C,Setup Read to [0x69] + ACK,,,,,,,,
0.980121156,I2C,0xFF + ACK,,,,,,,,
0.980148908,I2C,0xB0 + ACK,,,,,,,,
0.98017666,I2C,0xFF + ACK,,,,,,,,
0.980204416,I2C,0x58 + ACK,,,,,,,,
0.980232168,I2C,0x41 + ACK,,,,,,,,
0.98025992,I2C,0x00 + ACK,,,,,,,,
0.980287668,I2C,0xFE + ACK,,,,,,,,
0.98031542,I2C,0xE6 + ACK,,,,,,,,
0.980343176,I2C,0xFF + ACK,,,,,,,,
0.980370928,I2C,0xA9 + ACK,,,,,,,,
0.98039868,I2C,0x00 + ACK,,,,,,,,
0.980426432,I2C,0xC9 + ACK,,,,,,,,
0.980454188,I2C,0x04 + ACK,,,,,,,,
0.980482,I2C,0xD0 + NAK,,,,,,,,
0.98061012,I2C,Setup Write to [0x69] + ACK,,,,,,,,
0.980637888,I2C,0x7F + ACK,,,,,,,,
0.980665076,I2C,0x20 + ACK,,,,,,,,
0.980723192,I2C,Setup Write to [0x69] + ACK,,,,,,,,
0.980750956,I2C,0x14 + ACK,,,,,,,,
0.980784704,I2C,Setup Read to [0x69] + ACK,,,,,,,,
0.980811396,I2C,0x38 + NAK,,,,,,,,
0.980886952,I2C,Setup Write to [0x69] + ACK,,,,,,,,
0.980914656,I2C,0x7F + ACK,,,,,,,,
0.980941848,I2C,0x20 + ACK,,,,,,,,
0.98099996,I2C,Setup Write to [0x69] + ACK,,,,,,,,
0.981027728,I2C,0x01 + ACK,,,,,,,,
0.98106148,I2C,Setup Read to [0x69] + ACK,,,,,,,,
0.981088172,I2C,0x38 + NAK,,,,,,,,
0.981153724,I2C,Setup Write to [0x69] + ACK,,,,,,,,
0.981181492,I2C,0x15 + ACK,,,,,,,,
0.981215428,I2C,Setup Read to [0x69] + ACK,,,,,,,,
0.98124212,I2C,0x00 + NAK,,,,,,,,
0.981306488,I2C,Setup Write to [0x0C] + NAK,,,,,,,,
0.981350996,I2C,Setup Read to [0x0C] + NAK,,,,,,,,
1.02038232,I2C,Setup Write to [0x69] + ACK,,,,,,,,
1.020410088,I2C,0x7F + ACK,,,,,,,,
1.02043728,I2C,0x00 + ACK,,,,,,,,
1.020495456,I2C,Setup Write to [0x69] + ACK,,,,,,,,
1.02052322,I2C,0x1A + ACK,,,,,,,,
1.020556968,I2C,Setup Read to [0x69] + ACK,,,,,,,,
1.020583664,I2C,0x01 + NAK,,,,,,,,
1.020659284,I2C,Setup Write to [0x69] + ACK,,,,,,,,
1.020687048,I2C,0x7F + ACK,,,,,,,,
1.020714236,I2C,0x00 + ACK,,,,,,,,
1.020772352,I2C,Setup Write to [0x69] + ACK,,,,,,,,
1.020800056,I2C,0x2D + ACK,,,,,,,,
1.020833992,I2C,Setup Read to [0x69] + ACK,,,,,,,,
1.02086062,I2C,0xFF + ACK,,,,,,,,
1.020888376,I2C,0x38 + ACK,,,,,,,,
1.020916128,I2C,0xFE + ACK,,,,,,,,
1.02094388,I2C,0xF0 + ACK,,,,,,,,
1.020971632,I2C,0x40 + ACK,,,,,,,,
1.020999384,I2C,0x50 + ACK,,,,,,,,
1.021027136,I2C,0x01 + ACK,,,,,,,,
1.021054888,I2C,0x6F + ACK,,,,,,,,
1.02108264,I2C,0xFF + ACK,,,,,,,,
1.021110396,I2C,0x33 + ACK,,,,,,,,
1.021138148,I2C,0x00 + ACK,,,,,,,,
1.0211659,I2C,0xED + ACK,,,,,,,,
1.021193652,I2C,0x04 + ACK,,,,,,,,
1.021221464,I2C,0xF0 + NAK,,,,,,,,
1.021349524,I2C,Setup Write to [0x69] + ACK,,,,,,,,
1.021377288,I2C,0x7F + ACK,,,,,,,,
1.02140448,I2C,0x20 + ACK,,,,,,,,
1.021462596,I2C,Setup Write to [0x69] + ACK,,,,,,,,
1.021490364,I2C,0x14 + ACK,,,,,,,,
1.021524296,I2C,Setup Read to [0x69] + ACK,,,,,,,,
1.021550988,I2C,0x38 + NAK,,,,,,,,
1.021626544,I2C,Setup Write to [0x69] + ACK,,,,,,,,
1.021654248,I2C,0x7F + ACK,,,,,,,,
1.02168144,I2C,0x20 + ACK,,,,,,,,
1.021739552,I2C,Setup Write to [0x69] + ACK,,,,,,,,
1.02176732,I2C,0x01 + ACK,,,,,,,,
1.021801256,I2C,Setup Read to [0x69] + ACK,,,,,,,,
1.021827952,I2C,0x38 + NAK,,,,,,,,
1.021893504,I2C,Setup Write to [0x69] + ACK,,,,,,,,
1.021921268,I2C,0x15 + ACK,,,,,,,,
1.021955208,I2C,Setup Read to [0x69] + ACK,,,,,,,,
1.0219819,I2C,0x00 + NAK,,,,,,,,
1.022046268,I2C,Setup Write to [0x0C] + NAK,,,,,,,,
1.022090836,I2C,Setup Read to [0x0C] + NAK,,,,,,,,
1.061124664,I2C,Setup Write to [0x69] + ACK,,,,,,,,
1.061152428,I2C,0x7F + ACK,,,,,,,,
1.06117962,I2C,0x00 + ACK,,,,,,,,
1.0612378,I2C,Setup Write to [0x69] + ACK,,,,,,,,
1.061265564,I2C,0x1A + ACK,,,,,,,,
1.061299312,I2C,Setup Read to [0x69] + ACK,,,,,,,,
1.061326008,I2C,0x01 + NAK,,,,,,,,
1.061401624,I2C,Setup Write to [0x69] + ACK,,,,,,,,
1.061429392,I2C,0x7F + ACK,,,,,,,,
1.06145658,I2C,0x00 + ACK,,,,,,,,
1.061514696,I2C,Setup Write to [0x69] + ACK,,,,,,,,
1.0615424,I2C,0x2D + ACK,,,,,,,,
1.061576336,I2C,Setup Read to [0x69] + ACK,,,,,,,,
1.061602964,I2C,0xFF + ACK,,,,,,,,
1.06163072,I2C,0x20 + ACK,,,,,,,,
1.061658468,I2C,0xFF + ACK,,,,,,,,
1.061686224,I2C,0xA0 + ACK,,,,,,,,
1.061713976,I2C,0x41 + ACK,,,,,,,,
1.061741732,I2C,0x10 + ACK,,,,,,,,
1.06176948,I2C,0xFF + ACK,,,,,,,,
1.061797236,I2C,0x79 + ACK,,,,,,,,
1.061824988,I2C,0x00 + ACK,,,,,,,,
1.06185274,I2C,0x7D + ACK,,,,,,,,
1.061880492,I2C,0x00 + ACK,,,,,,,,
1.06190824,I2C,0x93 + ACK,,,,,,,,
1.061935992,I2C,0x04 + ACK,,,,,,,,
1.061963808,I2C,0xE0 + NAK,,,,,,,,
1.062091868,I2C,Setup Write to [0x69] + ACK,,,,,,,,
1.062119632,I2C,0x7F + ACK,,,,,,,,
1.06214682,I2C,0x20 + ACK,,,,,,,,
1.06220494,I2C,Setup Write to [0x69] + ACK,,,,,,,,
1.062232704,I2C,0x14 + ACK,,,,,,,,
1.06226664,I2C,Setup Read to [0x69] + ACK,,,,,,,,
1.062293336,I2C,0x38 + NAK,,,,,,,,
1.062368888,I2C,Setup Write to [0x69] + ACK,,,,,,,,
1.062396592,I2C,0x7F + ACK,,,,,,,,
1.06242378,I2C,0x20 + ACK,,,,,,,,
1.062481896,I2C,Setup Write to [0x69] + ACK,,,,,,,,
1.06250966,I2C,0x01 + ACK,,,,,,,,
1.0625436,I2C,Setup Read to [0x69] + ACK,,,,,,,,
1.062570292,I2C,0x38 + NAK,,,,,,,,
1.062635848,I2C,Setup Write to [0x69] + ACK,,,,,,,,
1.062663612,I2C,0x15 + ACK,,,,,,,,
1.062697548,I2C,Setup Read to [0x69] + ACK,,,,,,,,
1.062724244,I2C,0x00 + NAK,,,,,,,,
1.062788608,I2C,Setup Write to [0x0C] + NAK,,,,,,,,
1.062833116,I2C,Setup Read to [0x0C] + NAK,,,,,,,,
1.101871944,I2C,Setup Write to [0x69] + ACK,,,,,,,,
1.101899708,I2C,0x7F + ACK,,,,,,,,
1.1019269,I2C,0x00 + ACK,,,,,,,,
1.10198508,I2C,Setup Write to [0x69] + ACK,,,,,,,,
1.102012844,I2C,0x1A + ACK,,,,,,,,
1.10204678,I2C,Setup Read to [0x69] + ACK,,,,,,,,
1.102073476,I2C,0x01 + NAK,,,,,,,,
1.102149092,I2C,Setup Write to [0x69] + ACK,,,,,,,,
1.102176856,I2C,0x7F + ACK,,,,,,,,
1.102204048,I2C,0x00 + ACK,,,,,,,,
1.102262164,I2C,Setup Write to [0x69] + ACK,,,,,,,,
1.102289864,I2C,0x2D + ACK,,,,,,,,
1.102323804,I2C,Setup Read to [0x69] + ACK,,,,,,,,
1.102350432,I2C,0xFF + ACK,,,,,,,,
1.102378188,I2C,0x28 + ACK,,,,,,,,
1.102405936,I2C,0xFF + ACK,,,,,,,,
1.102433692,I2C,0xD0 + ACK,,,,,,,,
1.102461448,I2C,0x40 + ACK,,,,,,,,
1.102489196,I2C,0xE0 + ACK,,,,,,,,
1.102516952,I2C,0x00 + ACK,,,,,,,,
1.1025447,I2C,0x05 + ACK,,,,,,,,
1.102572448,I2C,0xFF + ACK,,,,,,,,
1.102600204,I2C,0x45 + ACK,,,,,,,,
1.102627956,I2C,0x00 + ACK,,,,,,,,
1.102655708,I2C,0xC8 + ACK,,,,,,,,
1.10268346,I2C,0x04 + ACK,,,,,,,,
1.102711272,I2C,0xF0 + NAK,,,,,,,,
1.102839396,I2C,Setup Write to [0x69] + ACK,,,,,,,,
1.10286716,I2C,0x7F + ACK,,,,,,,,
1.102894288,I2C,0x20 + ACK,,,,,,,,
1.102952404,I2C,Setup Write to [0x69] + ACK,,,,,,,,
1.102980168,I2C,0x14 + ACK,,,,,,,,
1.103014108,I2C,Setup Read to [0x69] + ACK,,,,,,,,
1.1030408,I2C,0x38 + NAK,,,,,,,,
1.103116352,I2C,Setup Write to [0x69] + ACK,,,,,,,,
1.103144056,I2C,0x7F + ACK,,,,,,,,
1.103171248,I2C,0x20 + ACK,,,,,,,,
1.103229364,I2C,Setup Write to [0x69] + ACK,,,,,,,,
1.103257128,I2C,0x01 + ACK,,,,,,,,
1.103291064,I2C,Setup Read to [0x69] + ACK,,,,,,,,
1.10331776,I2C,0x38 + NAK,,,,,,,,
1.103383312,I2C,Setup Write to [0x69] + ACK,,,,,,,,
1.10341108,I2C,0x15 + ACK,,,,,,,,
1.103445016,I2C,Setup Read to [0x69] + ACK,,,,,,,,
1.103471712,I2C,0x00 + NAK,,,,,,,,
1.103536076,I2C,Setup Write to [0x0C] + NAK,,,,,,,,
1.103580584,I2C,Setup Read to [0x0C] + NAK,,,,,,,,
1.1426156,I2C,Setup Write to [0x69] + ACK,,,,,,,,
1.142643364,I2C,0x7F + ACK,,,,,,,,
1.142670552,I2C,0x00 + ACK,,,,,,,,
1.142728732,I2C,Setup Write to [0x69] + ACK,,,,,,,,
1.142756496,I2C,0x1A + ACK,,,,,,,,
1.142790248,I2C,Setup Read to [0x69] + ACK,,,,,,,,
1.14281694,I2C,0x01 + NAK,,,,,,,,
1.142891308,I2C,Setup Write to [0x69] + ACK,,,,,,,,
1.142919072,I2C,0x7F + ACK,,,,,,,,
1.142946264,I2C,0x00 + ACK,,,,,,,,
1.143004444,I2C,Setup Write to [0x69] + ACK,,,,,,,,
1.143032208,I2C,0x2D + ACK,,,,,,,,
1.143066144,I2C,Setup Read to [0x69] + ACK,,,,,,,,
1.143092772,I2C,0xFF + ACK,,,,,,,,
1.143120528,I2C,0x98 + ACK,,,,,,,,
1.14314828,I2C,0xFF + ACK,,,,,,,,
1.143176032,I2C,0x98 + ACK,,,,,,,,
1.143203788,I2C,0x41 + ACK,,,,,,,,
1.14323154,I2C,0x00 + ACK,,,,,,,,
1.143259288,I2C,0xFE + ACK,,,,,,,,
1.143287044,I2C,0x63 + ACK,,,,,,,,
1.143314796,I2C,0x00 + ACK,,,,,,,,
1.143342544,I2C,0x95 + ACK,,,,,,,,
1.143370296,I2C,0xFF + ACK,,,,,,,,
1.143398048,I2C,0x5F + ACK,,,,,,,,
1.143425804,I2C,0x04 + ACK,,,,,,,,
1.143453616,I2C,0xF0 + NAK,,,,,,,,
1.14358174,I2C,Setup Write to [0x69] + ACK,,,,,,,,
1.143609504,I2C,0x7F + ACK,,,,,,,,
1.143636692,I2C,0x20 + ACK,,,,,,,,
1.143694808,I2C,Setup Write to [0x69] + ACK,,,,,,,,
1.143722576,I2C,0x14 + ACK,,,,,,,,
1.143756324,I2C,Setup Read to [0x69] + ACK,,,,,,,,
1.143783016,I2C,0x38 + NAK,,,,,,,,
1.143863636,I2C,Setup Write to [0x69] + ACK,,,,,,,,
1.1438914,I2C,0x7F + ACK,,,,,,,,
1.143918588,I2C,0x20 + ACK,,,,,,,,
1.143976708,I2C,Setup Write to [0x69] + ACK,,,,,,,,
1.144004472,I2C,0x01 + ACK,,,,,,,,
1.144038408,I2C,Setup Read to [0x69] + ACK,,,,,,,,
1.144065104,I2C,0x38 + NAK,,,,,,,,
1.144130656,I2C,Setup Write to [0x69] + ACK,,,,,,,,
1.144158424,I2C,0x15 + ACK,,,,,,,,
1.14419236,I2C,Setup Read to [0x69] + ACK,,,,,,,,
1.144219052,I2C,0x00 + NAK,,,,,,,,
1.14428342,I2C,Setup Write to [0x0C] + NAK,,,,,,,,
1.144327928,I2C,Setup Read to [0x0C] + NAK,,,,,,,,
1.183360504,I2C,Setup Write to [0x69] + ACK,,,,,,,,
1.183388272,I2C,0x7F + ACK,,,,,,,,
1.18341546,I2C,0x00 + ACK,,,,,,,,
1.183473636,I2C,Setup Write to [0x69] + ACK,,,,,,,,
1.183501404,I2C,0x1A + ACK,,,,,,,,
1.183535152,I2C,Setup Read to [0x69] + ACK,,,,,,,,
1.183561844,I2C,0x01 + NAK,,,,,,,,
1.183637464,I2C,Setup Write to [0x69] + ACK,,,,,,,,
1.183665228,I2C,0x7F + ACK,,,,,,,,
1.183692416,I2C,0x00 + ACK,,,,,,,,
1.183750536,I2C,Setup Write to [0x69] + ACK,,,,,,,,
1.18377824,I2C,0x2D + ACK,,,,,,,,
1.183811988,I2C,Setup Read to [0x69] + ACK,,,,,,,,
1.183838616,I2C,0xFF + ACK,,,,,,,,
1.183866372,I2C,0xD0 + ACK,,,,,,,,
1.18389412,I2C,0xFF + ACK,,,,,,,,
1.183921872,I2C,0xD0 + ACK,,,,,,,,
1.183949628,I2C,0x40 + ACK,,,,,,,,
1.18397738,I2C,0x78 + ACK,,,,,,,,
1.184005128,I2C,0xFE + ACK,,,,,,,,
1.18403288,I2C,0x9C + ACK,,,,,,,,
1.184060632,I2C,0xFF + ACK,,,,,,,,
1.184088388,I2C,0x74 + ACK,,,,,,,,
1.18411614,I2C,0xFF + ACK,,,,,,,,
1.184143896,I2C,0x3E + ACK,,,,,,,,
1.184171648,I2C,0x04 + ACK,,,,,,,,
1.18419946,I2C,0xF0 + NAK,,,,,,,,
1.18432758,I2C,Setup Write to [0x69] + ACK,,,,,,,,
1.184355344,I2C,0x7F + ACK,,,,,,,,
1.184382536,I2C,0x20 + ACK,,,,,,,,
1.184440652,I2C,Setup Write to [0x69] + ACK,,,,,,,,
1.18446842,I2C,0x14 + ACK,,,,,,,,
1.184502168,I2C,Setup Read to [0x69] + ACK,,,,,,,,
1.18452886,I2C,0x38 + NAK,,,,,,,,
1.184604416,I2C,Setup Write to [0x69] + ACK,,,,,,,,
1.18463212,I2C,0x7F + ACK,,,,,,,,
1.184659308,I2C,0x20 + ACK,,,,,,,,
1.184717424,I2C,Setup Write to [0x69] + ACK,,,,,,,,
1.184745188,I2C,0x01 + ACK,,,,,,,,
1.184779124,I2C,Setup Read to [0x69] + ACK,,,,,,,,
1.18480582,I2C,0x38 + NAK,,,,,,,,
1.184871372,I2C,Setup Write to [0x69] + ACK,,,,,,,,
1.18489914,I2C,0x15 + ACK,,,,,,,,
1.184932888,I2C,Setup Read to [0x69] + ACK,,,,,,,,
1.18495958,I2C,0x00 + NAK,,,,,,,,
1.185023948,I2C,Setup Write to [0x0C] + NAK,,,,,,,,
1.185068456,I2C,Setup Read to [0x0C] + NAK,,,,,,,,
1.224100968,I2C,Setup Write to [0x69] + ACK,,,,,,,,
1.224128736,I2C,0x7F + ACK,,,,,,,,
1.224155924,I2C,0x00 + ACK,,,,,,,,
1.224214104,I2C,Setup Write to [0x69] + ACK,,,,,,,,
1.224241868,I2C,0x1A + ACK,,,,,,,,
1.224275808,I2C,Setup Read to [0x69] + ACK,,,,,,,,
1.2243025,I2C,0x01 + NAK,,,,,,,,
1.22437812,I2C,Setup Write to [0x69] + ACK,,,,,,,,
1.224405884,I2C,0x7F + ACK,,,,,,,,
1.224433072,I2C,0x00 + ACK,,,,,,,,
1.224491188,I2C,Setup Write to [0x69] + ACK,,,,,,,,
1.224518892,I2C,0x2D + ACK,,,,,,,,
1.224552828,I2C,Setup Read to [0x69] + ACK,,,,,,,,
1.224579456,I2C,0xFF + ACK,,,,,,,,
1.224607212,I2C,0x60 + ACK,,,,,,,,
1.224634968,I2C,0x00 + ACK,,,,,,,,
1.224662716,I2C,0x40 + ACK,,,,,,,,
1.224690468,I2C,0x40 + ACK,,,,,,,,
1.22471822,I2C,0x20 + ACK,,,,,,,,
1.224745972,I2C,0xFF + ACK,,,,,,,,
1.224773724,I2C,0x80 + ACK,,,,,,,,
1.224801476,I2C,0xFE + ACK,,,,,,,,
1.224829228,I2C,0xA1 + ACK,,,,,,,,
1.224856984,I2C,0x00 + ACK,,,,,,,,
1.224884736,I2C,0x58 + ACK,,,,,,,,
1.224912488,I2C,0x04 + ACK,,,,,,,,
1.2249403,I2C,0xD0 + NAK,,,,,,,,
1.22506836,I2C,Setup Write to [0x69] + ACK,,,,,,,,
1.225096124,I2C,0x7F + ACK,,,,,,,,
1.225123312,I2C,0x20 + ACK,,,,,,,,
1.225181432,I2C,Setup Write to [0x69] + ACK,,,,,,,,
1.225209196,I2C,0x14 + ACK,,,,,,,,
1.225243132,I2C,Setup Read to [0x69] + ACK,,,,,,,,
1.225269824,I2C,0x38 + NAK,,,,,,,,
1.22534538,I2C,Setup Write to [0x69] + ACK,,,,,,,,
1.225373084,I2C,0x7F + ACK,,,,,,,,
1.225400272,I2C,0x20 + ACK,,,,,,,,
1.225458392,I2C,Setup Write to [0x69] + ACK,,,,,,,,
1.225486156,I2C,0x01 + ACK,,,,,,,,
1.225520092,I2C,Setup Read to [0x69] + ACK,,,,,,,,
1.225546784,I2C,0x38 + NAK,,,,,,,,
1.22561234,I2C,Setup Write to [0x69] + ACK,,,,,,,,
1.225640104,I2C,0x15 + ACK,,,,,,,,
1.225674044,I2C,Setup Read to [0x69] + ACK,,,,,,,,
1.225700736,I2C,0x00 + NAK,,,,,,,,
1.225765104,I2C,Setup Write to [0x0C] + NAK,,,,,,,,
1.225809672,I2C,Setup Read to [0x0C] + NAK,,,,,,,,
1.264844812,I2C,Setup Write to [0x69] + ACK,,,,,,,,
1.264872576,I2C,0x7F + ACK,,,,,,,,
1.264899768,I2C,0x00 + ACK,,,,,,,,
1.264957948,I2C,Setup Write to [0x69] + ACK,,,,,,,,
1.264985712,I2C,0x1A + ACK,,,,,,,,
1.26501946,I2C,Setup Read to [0x69] + ACK,,,,,,,,
1.265046152,I2C,0x01 + NAK,,,,,,,,
1.265121772,I2C,Setup Write to [0x69] + ACK,,,,,,,,
1.26514954,I2C,0x7F + ACK,,,,,,,,
1.265176728,I2C,0x00 + ACK,,,,,,,,
1.265234844,I2C,Setup Write to [0x69] + ACK,,,,,,,,
1.265262548,I2C,0x2D + ACK,,,,,,,,
1.265296484,I2C,Setup Read to [0x69] + ACK,,,,,,,,
1.265323112,I2C,0xFF + ACK,,,,,,,,
1.265350864,I2C,0x80 + ACK,,,,,,,,
1.26537862,I2C,0x00 + ACK,,,,,,,,
1.265406372,I2C,0x68 + ACK,,,,,,,,
1.265434124,I2C,0x40 + ACK,,,,,,,,
1.265461876,I2C,0xB8 + ACK,,,,,,,,
1.265489628,I2C,0xFF + ACK,,,,,,,,
1.26551738,I2C,0x92 + ACK,,,,,,,,
1.265545132,I2C,0xFE + ACK,,,,,,,,
1.265572888,I2C,0x74 + ACK,,,,,,,,
1.26560064,I2C,0x01 + ACK,,,,,,,,
1.265628392,I2C,0x2A + ACK,,,,,,,,
1.265656144,I2C,0x04 + ACK,,,,,,,,
1.265683956,I2C,0x80 + NAK,,,,,,,,
1.265818264,I2C,Setup Write to [0x69] + ACK,,,,,,,,
1.265846028,I2C,0x7F + ACK,,,,,,,,
1.26587322,I2C,0x20 + ACK,,,,,,,,
1.265931336,I2C,Setup Write to [0x69] + ACK,,,,,,,,
1.2659591,I2C,0x14 + ACK,,,,,,,,
1.26599304,I2C,Setup Read to [0x69] + ACK,,,,,,,,
1.266019732,I2C,0x38 + NAK,,,,,,,,
1.266095284,I2C,Setup Write to [0x69] + ACK,,,,,,,,
1.266122992,I2C,0x7F + ACK,,,,,,,,
1.26615018,I2C,0x20 + ACK,,,,,,,,
1.266208296,I2C,Setup Write to [0x69] + ACK,,,,,,,,
1.26623606,I2C,0x01 + ACK,,,,,,,,
1.266269996,I2C,Setup Read to [0x69] + ACK,,,,,,,,
1.266296688,I2C,0x38 + NAK,,,,,,,,
1.266362248,I2C,Setup Write to [0x69] + ACK,,,,,,,,
1.266390012,I2C,0x15 + ACK,,,,,,,,
1.266423948,I2C,Setup Read to [0x69] + ACK,,,,,,,,
1.26645064,I2C,0x00 + NAK,,,,,,,,
1.266515008,I2C,Setup Write to [0x0C] + NAK,,,,,,,,
1.266559516,I2C,Setup Read to [0x0C] + NAK,,,,,,,,
1.30559078,I2C,Setup Write to [0x69] + ACK,,,,,,,,
1.305618544,I2C,0x7F + ACK,,,,,,,,
1.305645736,I2C,0x00 + ACK,,,,,,,,
1.305703852,I2C,Setup Write to [0x69] + ACK,,,,,,,,
1.305731616,I2C,0x1A + ACK,,,,,,,,
1.305765552,I2C,Setup Read to [0x69] + ACK,,,,,,,,
1.305792248,I2C,0x01 + NAK,,,,,,,,
1.305867864,I2C,Setup Write to [0x69] + ACK,,,,,,,,
1.305895632,I2C,0x7F + ACK,,,,,,,,
1.30592282,I2C,0x00 + ACK,,,,,,,,
1.305980936,I2C,Setup Write to [0x69] + ACK,,,,,,,,
1.306008636,I2C,0x2D + ACK,,,,,,,,
1.306042576,I2C,Setup Read to [0x69] + ACK,,,,,,,,
1.306069204,I2C,0xFF + ACK,,,,,,,,
1.306096956,I2C,0x30 + ACK,,,,,,,,
1.306124708,I2C,0xFF + ACK,,,,,,,,
1.306152464,I2C,0x80 + ACK,,,,,,,,
1.30618022,I2C,0x41 + ACK,,,,,,,,
1.306207972,I2C,0x40 + ACK,,,,,,,,
1.30623572,I2C,0xFF + ACK,,,,,,,,
1.306263476,I2C,0x30 + ACK,,,,,,,,
1.306291224,I2C,0xFF + ACK,,,,,,,,
1.30631898,I2C,0x11 + ACK,,,,,,,,
1.306346728,I2C,0xFE + ACK,,,,,,,,
1.30637448,I2C,0xF8 + ACK,,,,,,,,
1.306402232,I2C,0x04 + ACK,,,,,,,,
1.306430048,I2C,0xB0 + NAK,,,,,,,,
1.306558168,I2C,Setup Write to [0x69] + ACK,,,,,,,,
1.306585932,I2C,0x7F + ACK,,,,,,,,
1.306613124,I2C,0x20 + ACK,,,,,,,,
1.30667124,I2C,Setup Write to [0x69] + ACK,,,,,,,,
1.306698944,I2C,0x14 + ACK,,,,,,,,
1.30673288,I2C,Setup Read to [0x69] + ACK,,,,,,,,
1.306759576,I2C,0x38 + NAK,,,,,,,,
1.306835128,I2C,Setup Write to [0x69] + ACK,,,,,,,,
1.306862832,I2C,0x7F + ACK,,,,,,,,
1.30689002,I2C,0x20 + ACK,,,,,,,,
1.30694814,I2C,Setup Write to [0x69] + ACK,,,,,,,,
1.306975904,I2C,0x01 + ACK,,,,,,,,
1.307009836,I2C,Setup Read to [0x69] + ACK,,,,,,,,
1.307036532,I2C,0x38 + NAK,,,,,,,,
1.307102088,I2C,Setup Write to [0x69] + ACK,,,,,,,,
1.307129852,I2C,0x15 + ACK,,,,,,,,
1.307163788,I2C,Setup Read to [0x69] + ACK,,,,,,,,
1.30719048,I2C,0x00 + NAK,,,,,,,,
1.307254852,I2C,Setup Write to [0x0C] + NAK,,,,,,,,
1.307299356,I2C,Setup Read to [0x0C] + NAK,,,,,,,,
1.346328124,I2C,Setup Write to [0x69] + ACK,,,,,,,,
1.346355824,I2C,0x7F + ACK,,,,,,,,
1.346383016,I2C,0x00 + ACK,,,,,,,,
1.346441192,I2C,Setup Write to [0x69] + ACK,,,,,,,,
1.34646896,I2C,0x1A + ACK,,,,,,,,
1.346502896,I2C,Setup Read to [0x69] + ACK,,,,,,,,
1.346529588,I2C,0x01 + NAK,,,,,,,,
1.346605204,I2C,Setup Write to [0x69] + ACK,,,,,,,,
1.346632972,I2C,0x7F + ACK,,,,,,,,
1.34666016,I2C,0x00 + ACK,,,,,,,,
1.34671834,I2C,Setup Write to [0x69] + ACK,,,,,,,,
1.346746104,I2C,0x2D + ACK,,,,,,,,
1.34678004,I2C,Setup Read to [0x69] + ACK,,,,,,,,
1.346806668,I2C,0xFF + ACK,,,,,,,,
1.346834424,I2C,0x08 + ACK,,,,,,,,
1.34686218,I2C,0x00 + ACK,,,,,,,,
1.346889932,I2C,0x30 + ACK,,,,,,,,
1.346917684,I2C,0x40 + ACK,,,,,,,,
1.346945436,I2C,0x70 + ACK,,,,,,,,
1.346973184,I2C,0xFE + ACK,,,,,,,,
1.34700094,I2C,0x54 + ACK,,,,,,,,
1.347028688,I2C,0xFF + ACK,,,,,,,,
1.347056444,I2C,0x59 + ACK,,,,,,,,
1.347084192,I2C,0xFF + ACK,,,,,,,,
1.347111948,I2C,0x01 + ACK,,,,,,,,
1.3471397,I2C,0x04 + ACK,,,,,,,,
1.347167512,I2C,0xE0 + NAK,,,,,,,,
1.347295636,I2C,Setup Write to [0x69] + ACK,,,,,,,,
1.347323404,I2C,0x7F + ACK,,,,,,,,
1.347350592,I2C,0x20 + ACK,,,,,,,,
1.347408708,I2C,Setup Write to [0x69] + ACK,,,,,,,,
1.347436472,I2C,0x14 + ACK,,,,,,,,
1.34747022,I2C,Setup Read to [0x69] + ACK,,,,,,,,
1.347496916,I2C,0x38 + NAK,,,,,,,,
1.347572468,I2C,Setup Write to [0x69] + ACK,,,,,,,,
1.347600172,I2C,0x7F + ACK,,,,,,,,
1.347627364,I2C,0x20 + ACK,,,,,,,,
1.34768548,I2C,Setup Write to [0x69] + ACK,,,,,,,,
1.347713244,I2C,0x01 + ACK,,,,,,,,
1.347746992,I2C,Setup Read to [0x69] + ACK,,,,,,,,
1.347773688,I2C,0x38 + NAK,,,,,,,,
1.34783924,I2C,Setup Write to [0x69] + ACK,,,,,,,,
1.347867008,I2C,0x15 + ACK,,,,,,,,
1.347900944,I2C,Setup Read to [0x69] + ACK,,,,,,,,
1.347927636,I2C,0x00 + NAK,,,,,,,,
1.347992004,I2C,Setup Write to [0x0C] + NAK,,,,,,,,
1.348036512,I2C,Setup Read to [0x0C] + NAK,,,,,,,,
1.387067776,I2C,Setup Write to [0x69] + ACK,,,,,,,,
1.38709554,I2C,0x7F + ACK,,,,,,,,
1.387122732,I2C,0x00 + ACK,,,,,,,,
1.387180908,I2C,Setup Write to [0x69] + ACK,,,,,,,,
1.387208676,I2C,0x1A + ACK,,,,,,,,
1.387242612,I2C,Setup Read to [0x69] + ACK,,,,,,,,
1.387269304,I2C,0x01 + NAK,,,,,,,,
1.387344924,I2C,Setup Write to [0x69] + ACK,,,,,,,,
1.387372688,I2C,0x7F + ACK,,,,,,,,
1.387399876,I2C,0x00 + ACK,,,,,,,,
1.387457996,I2C,Setup Write to [0x69] + ACK,,,,,,,,
1.387485696,I2C,0x2D + ACK,,,,,,,,
1.387519632,I2C,Setup Read to [0x69] + ACK,,,,,,,,
1.387546264,I2C,0xFF + ACK,,,,,,,,
1.387574016,I2C,0xD8 + ACK,,,,,,,,
1.387601768,I2C,0xFF + ACK,,,,,,,,
1.38762952,I2C,0x98 + ACK,,,,,,,,
1.387657276,I2C,0x40 + ACK,,,,,,,,
1.387685024,I2C,0xA0 + ACK,,,,,,,,
1.387712776,I2C,0xFE + ACK,,,,,,,,
1.387740528,I2C,0xB7 + ACK,,,,,,,,
1.387768284,I2C,0x00 + ACK,,,,,,,,
1.387796036,I2C,0x3E + ACK,,,,,,,,
1.387823784,I2C,0xFF + ACK,,,,,,,,
1.387851536,I2C,0xCB + ACK,,,,,,,,
1.387879292,I2C,0x04 + ACK,,,,,,,,
1.387907104,I2C,0x80 + NAK,,,,,,,,
1.388035164,I2C,Setup Write to [0x69] + ACK,,,,,,,,
1.388062932,I2C,0x7F + ACK,,,,,,,,
1.38809012,I2C,0x20 + ACK,,,,,,,,
1.388148236,I2C,Setup Write to [0x69] + ACK,,,,,,,,
1.388176,I2C,0x14 + ACK,,,,,,,,
1.388209936,I2C,Setup Read to [0x69] + ACK,,,,,,,,
1.388236632,I2C,0x38 + NAK,,,,,,,,
1.388312184,I2C,Setup Write to [0x69] + ACK,,,,,,,,
1.388339888,I2C,0x7F + ACK,,,,,,,,
1.388367076,I2C,0x20 + ACK,,,,,,,,
1.388425196,I2C,Setup Write to [0x69] + ACK,,,,,,,,
1.38845296,I2C,0x01 + ACK,,,,,,,,
1.388486896,I2C,Setup Read to [0x69] + ACK,,,,,,,,
1.388513592,I2C,0x38 + NAK,,,,,,,,
1.388579144,I2C,Setup Write to [0x69] + ACK,,,,,,,,
1.388610852,I2C,0x15 + ACK,,,,,,,,
1.38864472,I2C,Setup Read to [0x69] + ACK,,,,,,,,
1.388671416,I2C,0x00 + NAK,,,,,,,,
1.388735784,I2C,Setup Write to [0x0C] + NAK,,,,,,,,
1.388780292,I2C,Setup Read to [0x0C] + NAK,,,,,,,,
1.427811616,I2C,Setup Write to [0x69] + ACK,,,,,,,,
1.427839384,I2C,0x7F + ACK,,,,,,,,
1.427866572,I2C,0x00 + ACK,,,,,,,,
1.427924752,I2C,Setup Write to [0x69] + ACK,,,,,,,,
1.427952516,I2C,0x1A + ACK,,,,,,,,
1.427986264,I2C,Setup Read to [0x69] + ACK,,,,,,,,
1.42801296,I2C,0x01 + NAK,,,,,,,,
1.428088576,I2C,Setup Write to [0x69] + ACK,,,,,,,,
1.42811634,I2C,0x7F + ACK,,,,,,,,
1.428143532,I2C,0x00 + ACK,,,,,,,,
1.428201648,I2C,Setup Write to [0x69] + ACK,,,,,,,,
1.428229352,I2C,0x2D + ACK,,,,,,,,
1.428263288,I2C,Setup Read to [0x69] + ACK,,,,,,,,
1.42828992,I2C,0xFF + ACK,,,,,,,,
1.428317672,I2C,0xC8 + ACK,,,,,,,,
1.428345424,I2C,0xFF + ACK,,,,,,,,
1.42837318,I2C,0x50 + ACK,,,,,,,,
1.428400928,I2C,0x40 + ACK,,,,,,,,
1.42842868,I2C,0x98 + ACK,,,,,,,,
1.428456432,I2C,0x00 + ACK,,,,,,,,
1.428484184,I2C,0x0D + ACK,,,,,,,,
1.428511936,I2C,0xFE + ACK,,,,,,,,
1.428539688,I2C,0xEB + ACK,,,,,,,,
1.42856744,I2C,0xFE + ACK,,,,,,,,
1.428595192,I2C,0xD6 + ACK,,,,,,,,
1.428622948,I2C,0x04 + ACK,,,,,,,,
1.42865076,I2C,0xD0 + NAK,,,,,,,,
1.428778816,I2C,Setup Write to [0x69] + ACK,,,,,,,,
1.428806584,I2C,0x7F + ACK,,,,,,,,
1.428833772,I2C,0x20 + ACK,,,,,,,,
1.428891892,I2C,Setup Write to [0x69] + ACK,,,,,,,,
1.428919656,I2C,0x14 + ACK,,,,,,,,
1.428953592,I2C,Setup Read to [0x69] + ACK,,,,,,,,
1.428980284,I2C,0x38 + NAK,,,,,,,,
1.42905584,I2C,Setup Write to [0x69] + ACK,,,,,,,,
1.429083544,I2C,0x7F + ACK,,,,,,,,
1.429110732,I2C,0x20 + ACK,,,,,,,,
1.429168848,I2C,Setup Write to [0x69] + ACK,,,,,,,,
1.429196616,I2C,0x01 + ACK,,,,,,,,
1.429230552,I2C,Setup Read to [0x69] + ACK,,,,,,,,
1.429257248,I2C,0x38 + NAK,,,,,,,,
1.4293228,I2C,Setup Write to [0x69] + ACK,,,,,,,,
1.429350564,I2C,0x15 + ACK,,,,,,,,
1.4293845,I2C,Setup Read to [0x69] + ACK,,,,,,,,
1.429411192,I2C,0x00 + NAK,,,,,,,,
1.429475564,I2C,Setup Write to [0x0C] + NAK,,,,,,,,
1.429520072,I2C,Setup Read to [0x0C] + NAK,,,,,,,,
1.468561396,I2C,Setup Write to [0x69] + ACK,,,,,,,,
1.468589164,I2C,0x7F + ACK,,,,,,,,
1.468616352,I2C,0x00 + ACK,,,,,,,,
1.468674532,I2C,Setup Write to [0x69] + ACK,,,,,,,,
1.468702296,I2C,0x1A + ACK,,,,,,,,
1.468736044,I2C,Setup Read to [0x69] + ACK,,,,,,,,
1.46876274,I2C,0x01 + NAK,,,,,,,,
1.468838356,I2C,Setup Write to [0x69] + ACK,,,,,,,,
1.468866124,I2C,0x7F + ACK,,,,,,,,
1.468893312,I2C,0x00 + ACK,,,,,,,,
1.468951428,I2C,Setup Write to [0x69] + ACK,,,,,,,,
1.468979132,I2C,0x2D + ACK,,,,,,,,
1.469013068,I2C,Setup Read to [0x69] + ACK,,,,,,,,
1.469039696,I2C,0xFF + ACK,,,,,,,,
1.469067452,I2C,0x78 + ACK,,,,,,,,
1.4690952,I2C,0xFF + ACK,,,,,,,,
1.469122956,I2C,0x80 + ACK,,,,,,,,
1.469150708,I2C,0x41 + ACK,,,,,,,,
1.46917846,I2C,0x00 + ACK,,,,,,,,
1.469206212,I2C,0x00 + ACK,,,,,,,,
1.469233964,I2C,0x39 + ACK,,,,,,,,
1.469261716,I2C,0xFE + ACK,,,,,,,,
1.469289472,I2C,0x48 + ACK,,,,,,,,
1.46931722,I2C,0xFF + ACK,,,,,,,,
1.469344972,I2C,0xC6 + ACK,,,,,,,,
1.469372728,I2C,0x04 + ACK,,,,,,,,
1.46940054,I2C,0x80 + NAK,,,,,,,,
1.469534848,I2C,Setup Write to [0x69] + ACK,,,,,,,,
1.469562616,I2C,0x7F + ACK,,,,,,,,
1.469589804,I2C,0x20 + ACK,,,,,,,,
1.46964792,I2C,Setup Write to [0x69] + ACK,,,,,,,,
1.469675684,I2C,0x14 + ACK,,,,,,,,
1.469709624,I2C,Setup Read to [0x69] + ACK,,,,,,,,
1.469736316,I2C,0x38 + NAK,,,,,,,,
1.469811872,I2C,Setup Write to [0x69] + ACK,,,,,,,,
1.469839576,I2C,0x7F + ACK,,,,,,,,
1.469866764,I2C,0x20 + ACK,,,,,,,,
1.46992488,I2C,Setup Write to [0x69] + ACK,,,,,,,,
1.469952644,I2C,0x01 + ACK,,,,,,,,
1.469986584,I2C,Setup Read to [0x69] + ACK,,,,,,,,
1.470013276,I2C,0x38 + NAK,,,,,,,,
1.470078832,I2C,Setup Write to [0x69] + ACK,,,,,,,,
1.470106592,I2C,0x15 + ACK,,,,,,,,
1.470140532,I2C,Setup Read to [0x69] + ACK,,,,,,,,
1.470167224,I2C,0x00 + NAK,,,,,,,,
1.470231592,I2C,Setup Write to [0x0C] + NAK,,,,,,,,
1.4702761,I2C,Setup Read to [0x0C] + NAK,,,,,,,,
1.509307428,I2C,Setup Write to [0x69] + ACK,,,,,,,,
1.509335192,I2C,0x7F + ACK,,,,,,,,
1.50936238,I2C,0x00 + ACK,,,,,,,,
1.509420564,I2C,Setup Write to [0x69] + ACK,,,,,,,,
1.509452396,I2C,0x1A + ACK,,,,,,,,
1.509486264,I2C,Setup Read to [0x69] + ACK,,,,,,,,
1.509512956,I2C,0x01 + NAK,,,,,,,,
1.509588572,I2C,Setup Write to [0x69] + ACK,,,,,,,,
1.50961634,I2C,0x7F + ACK,,,,,,,,
1.509643528,I2C,0x00 + ACK,,,,,,,,
1.509701644,I2C,Setup Write to [0x69] + ACK,,,,,,,,
1.509729348,I2C,0x2D + ACK,,,,,,,,
1.509763284,I2C,Setup Read to [0x69] + ACK,,,,,,,,
1.509789912,I2C,0xFF + ACK,,,,,,,,
1.509817668,I2C,0xC8 + ACK,,,,,,,,
1.509845416,I2C,0xFF + ACK,,,,,,,,
1.509873176,I2C,0x60 + ACK,,,,,,,,
1.509900924,I2C,0x40 + ACK,,,,,,,,
1.509928676,I2C,0x98 + ACK,,,,,,,,
1.509956428,I2C,0xFF + ACK,,,,,,,,
1.509984184,I2C,0x61 + ACK,,,,,,,,
1.510011932,I2C,0xFF + ACK,,,,,,,,
1.510039684,I2C,0xFF + ACK,,,,,,,,
1.510067444,I2C,0x00 + ACK,,,,,,,,
1.510095192,I2C,0x5D + ACK,,,,,,,,
1.510122944,I2C,0x04 + ACK,,,,,,,,
1.510150756,I2C,0xF0 + NAK,,,,,,,,
1.510278876,I2C,Setup Write to [0x69] + ACK,,,,,,,,
1.510306644,I2C,0x7F + ACK,,,,,,,,
1.510333832,I2C,0x20 + ACK,,,,,,,,
1.510391952,I2C,Setup Write to [0x69] + ACK,,,,,,,,
1.510419716,I2C,0x14 + ACK,,,,,,,,
1.510453464,I2C,Setup Read to [0x69] + ACK,,,,,,,,
1.51048016,I2C,0x38 + NAK,,,,,,,,
1.510554524,I2C,Setup Write to [0x69] + ACK,,,,,,,,
1.510582292,I2C,0x7F + ACK,,,,,,,,
1.51060948,I2C,0x20 + ACK,,,,,,,,
1.510667596,I2C,Setup Write to [0x69] + ACK,,,,,,,,
1.51069536,I2C,0x01 + ACK,,,,,,,,
1.510729296,I2C,Setup Read to [0x69] + ACK,,,,,,,,
1.510755992,I2C,0x38 + NAK,,,,,,,,
1.510821548,I2C,Setup Write to [0x69] + ACK,,,,,,,,
1.510849312,I2C,0x15 + ACK,,,,,,,,
1.510883248,I2C,Setup Read to [0x69] + ACK,,,,,,,,
1.510909944,I2C,0x00 + NAK,,,,,,,,
1.510974308,I2C,Setup Write to [0x0C] + NAK,,,,,,,,
1.511018816,I2C,Setup Read to [0x0C] + NAK,,,,,,,,
1.55005008,I2C,Setup Write to [0x69] + ACK,,,,,,,,
1.550077844,I2C,0x7F + ACK,,,,,,,,
1.550105036,I2C,0x00 + ACK,,,,,,,,
1.550163216,I2C,Setup Write to [0x69] + ACK,,,,,,,,
1.55019098,I2C,0x1A + ACK,,,,,,,,
1.550224728,I2C,Setup Read to [0x69] + ACK,,,,,,,,
1.550251424,I2C,0x01 + NAK,,,,,,,,
1.55032704,I2C,Setup Write to [0x69] + ACK,,,,,,,,
1.550354804,I2C,0x7F + ACK,,,,,,,,
1.550381996,I2C,0x00 + ACK,,,,,,,,
1.550446116,I2C,Setup Write to [0x69] + ACK,,,,,,,,
1.550473876,I2C,0x2D + ACK,,,,,,,,
1.550507816,I2C,Setup Read to [0x69] + ACK,,,,,,,,
1.55053444,I2C,0xFE + ACK,,,,,,,,
1.550562196,I2C,0xC8 + ACK,,,,,,,,
1.550589948,I2C,0xFF + ACK,,,,,,,,
1.550617704,I2C,0x48 + ACK,,,,,,,,
1.550645456,I2C,0x40 + ACK,,,,,,,,
1.550673212,I2C,0x70 + ACK,,,,,,,,
1.55070096,I2C,0xFE + ACK,,,,,,,,
1.550728712,I2C,0xE2 + ACK,,,,,,,,
1.550756464,I2C,0x00 + ACK,,,,,,,,
1.550784216,I2C,0xF0 + ACK,,,,,,,,
1.550811964,I2C,0xFD + ACK,,,,,,,,
1.550839716,I2C,0xDC + ACK,,,,,,,,
1.550867472,I2C,0x04 + ACK,,,,,,,,
1.550895284,I2C,0xD0 + NAK,,,,,,,,
1.551023408,I2C,Setup Write to [0x69] + ACK,,,,,,,,
1.551051172,I2C,0x7F + ACK,,,,,,,,
1.551078364,I2C,0x20 + ACK,,,,,,,,
1.55113648,I2C,Setup Write to [0x69] + ACK,,,,,,,,
1.551164244,I2C,0x14 + ACK,,,,,,,,
1.551197992,I2C,Setup Read to [0x69] + ACK,,,,,,,,
1.551224688,I2C,0x38 + NAK,,,,,,,,
1.55130024,I2C,Setup Write to [0x69] + ACK,,,,,,,,
1.551327944,I2C,0x7F + ACK,,,,,,,,
1.551355136,I2C,0x20 + ACK,,,,,,,,
1.551413252,I2C,Setup Write to [0x69] + ACK,,,,,,,,
1.551441016,I2C,0x01 + ACK,,,,,,,,
1.551474764,I2C,Setup Read to [0x69] + ACK,,,,,,,,
1.55150146,I2C,0x38 + NAK,,,,,,,,
1.551567012,I2C,Setup Write to [0x69] + ACK,,,,,,,,
1.55159478,I2C,0x15 + ACK,,,,,,,,
1.551628716,I2C,Setup Read to [0x69] + ACK,,,,,,,,
1.551655412,I2C,0x00 + NAK,,,,,,,,
1.551719776,I2C,Setup Write to [0x0C] + NAK,,,,,,,,
1.551764284,I2C,Setup Read to [0x0C] + NAK,,,,,,,,
1.590795612,I2C,Setup Write to [0x69] + ACK,,,,,,,,
1.590823376,I2C,0x7F + ACK,,,,,,,,
1.590850564,I2C,0x00 + ACK,,,,,,,,
1.590908744,I2C,Setup Write to [0x69] + ACK,,,,,,,,
1.590936508,I2C,0x1A + ACK,,,,,,,,
1.59097026,I2C,Setup Read to [0x69] + ACK,,,,,,,,
1.590996952,I2C,0x01 + NAK,,,,,,,,
1.591072568,I2C,Setup Write to [0x69] + ACK,,,,,,,,
1.591100332,I2C,0x7F + ACK,,,,,,,,
1.591127524,I2C,0x00 + ACK,,,,,,,,
1.591185644,I2C,Setup Write to [0x69] + ACK,,,,,,,,
1.591213344,I2C,0x2D + ACK,,,,,,,,
1.59124728,I2C,Setup Read to [0x69] + ACK,,,,,,,,
1.591273908,I2C,0xFF + ACK,,,,,,,,
1.591301668,I2C,0x40 + ACK,,,,,,,,
1.59132942,I2C,0x00 + ACK,,,,,,,,
1.591357172,I2C,0x18 + ACK,,,,,,,,
1.591384924,I2C,0x41 + ACK,,,,,,,,
1.591412676,I2C,0x18 + ACK,,,,,,,,
1.591440424,I2C,0xFE + ACK,,,,,,,,
1.591468176,I2C,0xD7 + ACK,,,,,,,,
1.591495928,I2C,0xFF + ACK,,,,,,,,
1.591523684,I2C,0x5E + ACK,,,,,,,,
1.591551432,I2C,0xFE + ACK,,,,,,,,
1.591579184,I2C,0xC7 + ACK,,,,,,,,
1.591606936,I2C,0x04 + ACK,,,,,,,,
1.591634752,I2C,0x80 + NAK,,,,,,,,
1.591762812,I2C,Setup Write to [0x69] + ACK,,,,,,,,
1.59179058,I2C,0x7F + ACK,,,,,,,,
1.591817768,I2C,0x20 + ACK,,,,,,,,
1.591875884,I2C,Setup Write to [0x69] + ACK,,,,,,,,
1.591903648,I2C,0x14 + ACK,,,,,,,,
1.591937584,I2C,Setup Read to [0x69] + ACK,,,,,,,,
1.591964276,I2C,0x38 + NAK,,,,,,,,
1.592039832,I2C,Setup Write to [0x69] + ACK,,,,,,,,
1.592067536,I2C,0x7F + ACK,,,,,,,,
1.592094724,I2C,0x20 + ACK,,,,,,,,
1.592152844,I2C,Setup Write to [0x69] + ACK,,,,,,,,
1.592180608,I2C,0x01 + ACK,,,,,,,,
1.592214544,I2C,Setup Read to [0x69] + ACK,,,,,,,,
1.59224124,I2C,0x38 + NAK,,,,,,,,
1.592306792,I2C,Setup Write to [0x69] + ACK,,,,,,,,
1.59233456,I2C,0x15 + ACK,,,,,,,,
1.592368496,I2C,Setup Read to [0x69] + ACK,,,,,,,,
1.592395188,I2C,0x00 + NAK,,,,,,,,
1.592459556,I2C,Setup Write to [0x0C] + NAK,,,,,,,,
1.592504128,I2C,Setup Read to [0x0C] + NAK,,,,,,,,
1.631535512,I2C,Setup Write to [0x69] + ACK,,,,,,,,
1.63156328,I2C,0x7F + ACK,,,,,,,,
1.631590472,I2C,0x00 + ACK,,,,,,,,
1.631648648,I2C,Setup Write to [0x69] + ACK,,,,,,,,
1.631676416,I2C,0x1A + ACK,,,,,,,,
1.631710352,I2C,Setup Read to [0x69] + ACK,,,,,,,,
1.631737044,I2C,0x01 + NAK,,,,,,,,
1.63181266,I2C,Setup Write to [0x69] + ACK,,,,,,,,
1.631840424,I2C,0x7F + ACK,,,,,,,,
1.631867616,I2C,0x00 + ACK,,,,,,,,
1.631925736,I2C,Setup Write to [0x69] + ACK,,,,,,,,
1.631953436,I2C,0x2D + ACK,,,,,,,,
1.631987372,I2C,Setup Read to [0x69] + ACK,,,,,,,,
1.632014004,I2C,0xFF + ACK,,,,,,,,
1.63204176,I2C,0x00 + ACK,,,,,,,,
1.632069508,I2C,0xFF + ACK,,,,,,,,
1.63209726,I2C,0x98 + ACK,,,,,,,,
1.632125016,I2C,0x40 + ACK,,,,,,,,
1.632152768,I2C,0x08 + ACK,,,,,,,,
1.63218052,I2C,0x00 + ACK,,,,,,,,
1.632208268,I2C,0x48 + ACK,,,,,,,,
1.63223602,I2C,0xFF + ACK,,,,,,,,
1.632263776,I2C,0x26 + ACK,,,,,,,,
1.632291528,I2C,0x00 + ACK,,,,,,,,
1.632319276,I2C,0xC9 + ACK,,,,,,,,
1.632347032,I2C,0x04 + ACK,,,,,,,,
1.632374844,I2C,0xD0 + NAK,,,,,,,,
1.6325029,I2C,Setup Write to [0x69] + ACK,,,,,,,,
1.632530668,I2C,0x7F + ACK,,,,,,,,
1.63255786,I2C,0x20 + ACK,,,,,,,,
1.632615976,I2C,Setup Write to [0x69] + ACK,,,,,,,,
1.63264374,I2C,0x14 + ACK,,,,,,,,
1.632677676,I2C,Setup Read to [0x69] + ACK,,,,,,,,
1.632704368,I2C,0x38 + NAK,,,,,,,,
1.632779924,I2C,Setup Write to [0x69] + ACK,,,,,,,,
1.632807628,I2C,0x7F + ACK,,,,,,,,
1.632834816,I2C,0x20 + ACK,,,,,,,,
1.632892936,I2C,Setup Write to [0x69] + ACK,,,,,,,,
1.6329207,I2C,0x01 + ACK,,,,,,,,
1.632954636,I2C,Setup Read to [0x69] + ACK,,,,,,,,
1.632981332,I2C,0x38 + NAK,,,,,,,,
1.633046884,I2C,Setup Write to [0x69] + ACK,,,,,,,,
1.633074648,I2C,0x15 + ACK,,,,,,,,
1.633108584,I2C,Setup Read to [0x69] + ACK,,,,,,,,
1.63313528,I2C,0x00 + NAK,,,,,,,,
1.633199648,I2C,Setup Write to [0x0C] + NAK,,,,,,,,
1.633244156,I2C,Setup Read to [0x0C] + NAK,,,,,,,,
1.672280364,I2C,Setup Write to [0x69] + ACK,,,,,,,,
1.672308124,I2C,0x7F + ACK,,,,,,,,
1.672335312,I2C,0x00 + ACK,,,,,,,,
1.672393492,I2C,Setup Write to [0x69] + ACK,,,,,,,,
1.672421256,I2C,0x1A + ACK,,,,,,,,
1.672455004,I2C,Setup Read to [0x69] + ACK,,,,,,,,
1.672481696,I2C,0x01 + NAK,,,,,,,,
1.672557316,I2C,Setup Write to [0x69] + ACK,,,,,,,,
1.67258508,I2C,0x7F + ACK,,,,,,,,
1.672612272,I2C,0x00 + ACK,,,,,,,,
1.672670388,I2C,Setup Write to [0x69] + ACK,,,,,,,,
1.672698092,I2C,0x2D + ACK,,,,,,,,
1.672732028,I2C,Setup Read to [0x69] + ACK,,,,,,,,
1.672758656,I2C,0x00 + ACK,,,,,,,,
1.672786412,I2C,0x40 + ACK,,,,,,,,
1.67281416,I2C,0xFF + ACK,,,,,,,,
1.672841916,I2C,0x40 + ACK,,,,,,,,
1.672869668,I2C,0x41 + ACK,,,,,,,,
1.67289742,I2C,0x40 + ACK,,,,,,,,
1.672925168,I2C,0xFF + ACK,,,,,,,,
1.672952924,I2C,0xFE + ACK,,,,,,,,
1.672980672,I2C,0xFE + ACK,,,,,,,,
1.673008428,I2C,0xEC + ACK,,,,,,,,
1.67303618,I2C,0x00 + ACK,,,,,,,,
1.673063936,I2C,0x03 + ACK,,,,,,,,
1.673091688,I2C,0x04 + ACK,,,,,,,,
1.6731195,I2C,0x80 + NAK,,,,,,,,
1.673247616,I2C,Setup Write to [0x69] + ACK,,,,,,,,
1.673275384,I2C,0x7F + ACK,,,,,,,,
1.673304764,I2C,0x20 + ACK,,,,,,,,
1.673362816,I2C,Setup Write to [0x69] + ACK,,,,,,,,
1.67339058,I2C,0x14 + ACK,,,,,,,,
1.67342452,I2C,Setup Read to [0x69] + ACK,,,,,,,,
1.673451208,I2C,0x38 + NAK,,,,,,,,
1.673526768,I2C,Setup Write to [0x69] + ACK,,,,,,,,
1.673554472,I2C,0x7F + ACK,,,,,,,,
1.67358166,I2C,0x20 + ACK,,,,,,,,
1.673639776,I2C,Setup Write to [0x69] + ACK,,,,,,,,
1.67366754,I2C,0x01 + ACK,,,,,,,,
1.67370148,I2C,Setup Read to [0x69] + ACK,,,,,,,,
1.673728172,I2C,0x38 + NAK,,,,,,,,
1.673793728,I2C,Setup Write to [0x69] + ACK,,,,,,,,
1.673821492,I2C,0x15 + ACK,,,,,,,,
1.673855428,I2C,Setup Read to [0x69] + ACK,,,,,,,,
1.67388212,I2C,0x00 + NAK,,,,,,,,
1.673946492,I2C,Setup Write to [0x0C] + NAK,,,,,,,,
1.673990996,I2C,Setup Read to [0x0C] + NAK,,,,,,,,
1.713023572,I2C,Setup Write to [0x69] + ACK,,,,,,,,
1.71305134,I2C,0x7F + ACK,,,,,,,,
1.713078528,I2C,0x00 + ACK,,,,,,,,
1.713136708,I2C,Setup Write to [0x69] + ACK,,,,,,,,
1.713164472,I2C,0x1A + ACK,,,,,,,,
1.713198408,I2C,Setup Read to [0x69] + ACK,,,,,,,,
1.7132251,I2C,0x01 + NAK,,,,,,,,
1.713299468,I2C,Setup Write to [0x69] + ACK,,,,,,,,
1.713327236,I2C,0x7F + ACK,,,,,,,,
1.713354428,I2C,0x00 + ACK,,,,,,,,
1.713412604,I2C,Setup Write to [0x69] + ACK,,,,,,,,
1.713440368,I2C,0x2D + ACK,,,,,,,,
1.713474308,I2C,Setup Read to [0x69] + ACK,,,,,,,,
1.713500936,I2C,0xFF + ACK,,,,,,,,
1.713528692,I2C,0x48 + ACK,,,,,,,,
1.71355644,I2C,0x00 + ACK,,,,,,,,
1.713584192,I2C,0x68 + ACK,,,,,,,,
1.713611948,I2C,0x40 + ACK,,,,,,,,
1.713639696,I2C,0x90 + ACK,,,,,,,,
1.713667448,I2C,0xFF + ACK,,,,,,,,
1.713695204,I2C,0x14 + ACK,,,,,,,,
1.713722956,I2C,0x00 + ACK,,,,,,,,
1.713750708,I2C,0x3A + ACK,,,,,,,,
1.71377846,I2C,0xFF + ACK,,,,,,,,
1.713806216,I2C,0x70 + ACK,,,,,,,,
1.713833964,I2C,0x04 + ACK,,,,,,,,
1.713861776,I2C,0xB0 + NAK,,,,,,,,
1.7139899,I2C,Setup Write to [0x69] + ACK,,,,,,,,
1.714017664,I2C,0x7F + ACK,,,,,,,,
1.714044852,I2C,0x20 + ACK,,,,,,,,
1.714102972,I2C,Setup Write to [0x69] + ACK,,,,,,,,
1.714130736,I2C,0x14 + ACK,,,,,,,,
1.714164484,I2C,Setup Read to [0x69] + ACK,,,,,,,,
1.71419118,I2C,0x38 + NAK,,,,,,,,
1.714271796,I2C,Setup Write to [0x69] + ACK,,,,,,,,
1.71429956,I2C,0x7F + ACK,,,,,,,,
1.714326752,I2C,0x20 + ACK,,,,,,,,
1.714384868,I2C,Setup Write to [0x69] + ACK,,,,,,,,
1.714412632,I2C,0x01 + ACK,,,,,,,,
1.714446572,I2C,Setup Read to [0x69] + ACK,,,,,,,,
1.71447326,I2C,0x38 + NAK,,,,,,,,
1.71453882,I2C,Setup Write to [0x69] + ACK,,,,,,,,
1.714566584,I2C,0x15 + ACK,,,,,,,,
1.71460052,I2C,Setup Read to [0x69] + ACK,,,,,,,,
1.714627212,I2C,0x00 + NAK,,,,,,,,
1.71469158,I2C,Setup Write to [0x0C] + NAK,,,,,,,,
1.714736088,I2C,Setup Read to [0x0C] + NAK,,,,,,,,
1.753767352,I2C,Setup Write to [0x69] + ACK,,,,,,,,
1.753795116,I2C,0x7F + ACK,,,,,,,,
1.753822308,I2C,0x00 + ACK,,,,,,,,
1.753880488,I2C,Setup Write to [0x69] + ACK,,,,,,,,
1.753908252,I2C,0x1A + ACK,,,,,,,,
1.753942188,I2C,Setup Read to [0x69] + ACK,,,,,,,,
1.75396888,I2C,0x01 + NAK,,,,,,,,
1.7540445,I2C,Setup Write to [0x69] + ACK,,,,,,,,
1.754072264,I2C,0x7F + ACK,,,,,,,,
1.754099456,I2C,0x00 + ACK,,,,,,,,
1.754157572,I2C,Setup Write to [0x69] + ACK,,,,,,,,
1.754185272,I2C,0x2D + ACK,,,,,,,,
1.754219024,I2C,Setup Read to [0x69] + ACK,,,,,,,,
1.754245652,I2C,0xFF + ACK,,,,,,,,
1.754273408,I2C,0x78 + ACK,,,,,,,,
1.754301156,I2C,0xFF + ACK,,,,,,,,
1.754328912,I2C,0x98 + ACK,,,,,,,,
1.754356664,I2C,0x40 + ACK,,,,,,,,
1.754384412,I2C,0xE8 + ACK,,,,,,,,
1.754412164,I2C,0xFF + ACK,,,,,,,,
1.75443992,I2C,0xC9 + ACK,,,,,,,,
1.754467672,I2C,0xFE + ACK,,,,,,,,
1.754495424,I2C,0xFB + ACK,,,,,,,,
1.754523176,I2C,0xFE + ACK,,,,,,,,
1.754550932,I2C,0x26 + ACK,,,,,,,,
1.754578684,I2C,0x05 + ACK,,,,,,,,
1.754606496,I2C,0x10 + NAK,,,,,,,,
1.754734616,I2C,Setup Write to [0x69] + ACK,,,,,,,,
1.75476238,I2C,0x7F + ACK,,,,,,,,
1.754789572,I2C,0x20 + ACK,,,,,,,,
1.754847688,I2C,Setup Write to [0x69] + ACK,,,,,,,,
1.754875456,I2C,0x14 + ACK,,,,,,,,
1.7549092,I2C,Setup Read to [0x69] + ACK,,,,,,,,
1.754935896,I2C,0x38 + NAK,,,,,,,,
1.755011448,I2C,Setup Write to [0x69] + ACK,,,,,,,,
1.755039152,I2C,0x7F + ACK,,,,,,,,
1.755066344,I2C,0x20 + ACK,,,,,,,,
1.75512446,I2C,Setup Write to [0x69] + ACK,,,,,,,,
1.755152224,I2C,0x01 + ACK,,,,,,,,
1.75518616,I2C,Setup Read to [0x69] + ACK,,,,,,,,
1.755212856,I2C,0x38 + NAK,,,,,,,,
1.755278408,I2C,Setup Write to [0x69] + ACK,,,,,,,,
1.755306172,I2C,0x15 + ACK,,,,,,,,
1.755339924,I2C,Setup Read to [0x69] + ACK,,,,,,,,
1.755366616,I2C,0x00 + NAK,,,,,,,,
1.755430984,I2C,Setup Write to [0x0C] + NAK,,,,,,,,
1.755475492,I2C,Setup Read to [0x0C] + NAK,,,,,,,,
1.794506756,I2C,Setup Write to [0x69] + ACK,,,,,,,,
1.79453452,I2C,0x7F + ACK,,,,,,,,
1.794561712,I2C,0x00 + ACK,,,,,,,,
1.794619892,I2C,Setup Write to [0x69] + ACK,,,,,,,,
1.794647656,I2C,0x1A + ACK,,,,,,,,
1.794681404,I2C,Setup Read to [0x69] + ACK,,,,,,,,
1.7947081,I2C,0x01 + NAK,,,,,,,,
1.794783712,I2C,Setup Write to [0x69] + ACK,,,,,,,,
1.79481148,I2C,0x7F + ACK,,,,,,,,
1.794838668,I2C,0x00 + ACK,,,,,,,,
1.794896788,I2C,Setup Write to [0x69] + ACK,,,,,,,,
1.794924488,I2C,0x2D + ACK,,,,,,,,
1.794958428,I2C,Setup Read to [0x69] + ACK,,,,,,,,
1.794985056,I2C,0xFF + ACK,,,,,,,,
1.795012808,I2C,0xA8 + ACK,,,,,,,,
1.79504056,I2C,0xFF + ACK,,,,,,,,
1.795068312,I2C,0xC0 + ACK,,,,,,,,
1.795096068,I2C,0x41 + ACK,,,,,,,,
1.79512382,I2C,0x30 + ACK,,,,,,,,
1.795151572,I2C,0xFE + ACK,,,,,,,,
1.795179324,I2C,0xE2 + ACK,,,,,,,,
1.795207076,I2C,0x00 + ACK,,,,,,,,
1.795234828,I2C,0x67 + ACK,,,,,,,,
1.79526258,I2C,0xFF + ACK,,,,,,,,
1.795290332,I2C,0x92 + ACK,,,,,,,,
1.795318084,I2C,0x04 + ACK,,,,,,,,
1.795345896,I2C,0xD0 + NAK,,,,,,,,
1.79547396,I2C,Setup Write to [0x69] + ACK,,,,,,,,
1.795501724,I2C,0x7F + ACK,,,,,,,,
1.795528912,I2C,0x20 + ACK,,,,,,,,
1.795587028,I2C,Setup Write to [0x69] + ACK,,,,,,,,
1.795614796,I2C,0x14 + ACK,,,,,,,,
1.795648732,I2C,Setup Read to [0x69] + ACK,,,,,,,,
1.795675424,I2C,0x38 + NAK,,,,,,,,
1.79575098,I2C,Setup Write to [0x69] + ACK,,,,,,,,
1.79577868,I2C,0x7F + ACK,,,,,,,,
1.795805872,I2C,0x20 + ACK,,,,,,,,
1.795863988,I2C,Setup Write to [0x69] + ACK,,,,,,,,
1.795891752,I2C,0x01 + ACK,,,,,,,,
1.795925688,I2C,Setup Read to [0x69] + ACK,,,,,,,,
1.795952384,I2C,0x38 + NAK,,,,,,,,
1.796017936,I2C,Setup Write to [0x69] + ACK,,,,,,,,
1.796045704,I2C,0x15 + ACK,,,,,,,,
1.79607964,I2C,Setup Read to [0x69] + ACK,,,,,,,,
1.796106336,I2C,0x00 + NAK,,,,,,,,
1.7961707,I2C,Setup Write to [0x0C] + NAK,,,,,,,,
1.796215272,I2C,Setup Read to [0x0C] + NAK,,,,,,,,
1.83524666,I2C,Setup Write to [0x69] + ACK,,,,,,,,
1.835274428,I2C,0x7F + ACK,,,,,,,,
1.835301616,I2C,0x00 + ACK,,,,,,,,
1.835359796,I2C,Setup Write to [0x69] + ACK,,,,,,,,
1.83538756,I2C,0x1A + ACK,,,,,,,,
1.835421496,I2C,Setup Read to [0x69] + ACK,,,,,,,,
1.835448192,I2C,0x01 + NAK,,,,,,,,
1.835523808,I2C,Setup Write to [0x69] + ACK,,,,,,,,
1.835551572,I2C,0x7F + ACK,,,,,,,,
1.83557876,I2C,0x00 + ACK,,,,,,,,
1.83563688,I2C,Setup Write to [0x69] + ACK,,,,,,,,
1.83566458,I2C,0x2D + ACK,,,,,,,,
1.835698516,I2C,Setup Read to [0x69] + ACK,,,,,,,,
1.835725148,I2C,0xFF + ACK,,,,,,,,
1.835752904,I2C,0x20 + ACK,,,,,,,,
1.835780652,I2C,0xFF + ACK,,,,,,,,
1.835808408,I2C,0xC8 + ACK,,,,,,,,
1.83583616,I2C,0x41 + ACK,,,,,,,,
1.835863908,I2C,0x90 + ACK,,,,,,,,
1.83589166,I2C,0xFF + ACK,,,,,,,,
1.835919412,I2C,0xB6 + ACK,,,,,,,,
1.835947168,I2C,0xFF + ACK,,,,,,,,
1.83597492,I2C,0x61 + ACK,,,,,,,,
1.836002668,I2C,0xFE + ACK,,,,,,,,
1.83603042,I2C,0xCF + ACK,,,,,,,,
1.836058176,I2C,0x04 + ACK,,,,,,,,
1.836085988,I2C,0xF0 + NAK,,,,,,,,
1.8362203,I2C,Setup Write to [0x69] + ACK,,,,,,,,
1.836248064,I2C,0x7F + ACK,,,,,,,,
1.836275256,I2C,0x20 + ACK,,,,,,,,
1.836333372,I2C,Setup Write to [0x69] + ACK,,,,,,,,
1.836361136,I2C,0x14 + ACK,,,,,,,,
1.836395076,I2C,Setup Read to [0x69] + ACK,,,,,,,,
1.836421764,I2C,0x38 + NAK,,,,,,,,
1.83649732,I2C,Setup Write to [0x69] + ACK,,,,,,,,
1.836525024,I2C,0x7F + ACK,,,,,,,,
1.836552212,I2C,0x20 + ACK,,,,,,,,
1.836610332,I2C,Setup Write to [0x69] + ACK,,,,,,,,
1.836638096,I2C,0x01 + ACK,,,,,,,,
1.836672032,I2C,Setup Read to [0x69] + ACK,,,,,,,,
1.836698728,I2C,0x38 + NAK,,,,,,,,
1.83676428,I2C,Setup Write to [0x69] + ACK,,,,,,,,
1.836792044,I2C,0x15 + ACK,,,,,,,,
1.836825984,I2C,Setup Read to [0x69] + ACK,,,,,,,,
1.836852676,I2C,0x00 + NAK,,,,,,,,
1.836917044,I2C,Setup Write to [0x0C] + NAK,,,,,,,,
1.836961552,I2C,Setup Read to [0x0C] + NAK,,,,,,,,
1.875992876,I2C,Setup Write to [0x69] + ACK,,,,,,,,
1.87602064,I2C,0x7F + ACK,,,,,,,,
1.876047832,I2C,0x00 + ACK,,,,,,,,
1.876106012,I2C,Setup Write to [0x69] + ACK,,,,,,,,
1.876133776,I2C,0x1A + ACK,,,,,,,,
1.876167524,I2C,Setup Read to [0x69] + ACK,,,,,,,,
1.876194216,I2C,0x01 + NAK,,,,,,,,
1.876269836,I2C,Setup Write to [0x69] + ACK,,,,,,,,
1.8762976,I2C,0x7F + ACK,,,,,,,,
1.876324792,I2C,0x00 + ACK,,,,,,,,
1.876382908,I2C,Setup Write to [0x69] + ACK,,,,,,,,
1.876410612,I2C,0x2D + ACK,,,,,,,,
1.876444548,I2C,Setup Read to [0x69] + ACK,,,,,,,,
1.876471176,I2C,0xFF + ACK,,,,,,,,
1.876498932,I2C,0x00 + ACK,,,,,,,,
1.87652668,I2C,0xFF + ACK,,,,,,,,
1.876554436,I2C,0x68 + ACK,,,,,,,,
1.876582188,I2C,0x40 + ACK,,,,,,,,
1.87660994,I2C,0xF0 + ACK,,,,,,,,
1.876637692,I2C,0xFF + ACK,,,,,,,,
1.876665444,I2C,0x0F + ACK,,,,,,,,
1.876693196,I2C,0xFF + ACK,,,,,,,,
1.876720948,I2C,0x12 + ACK,,,,,,,,
1.876748704,I2C,0x01 + ACK,,,,,,,,
1.876776456,I2C,0x2F + ACK,,,,,,,,
1.876804204,I2C,0x04 + ACK,,,,,,,,
1.876832016,I2C,0xB0 + NAK,,,,,,,,
1.87696014,I2C,Setup Write to [0x69] + ACK,,,,,,,,
1.876987908,I2C,0x7F + ACK,,,,,,,,
1.877015096,I2C,0x20 + ACK,,,,,,,,
1.877073212,I2C,Setup Write to [0x69] + ACK,,,,,,,,
1.877100916,I2C,0x14 + ACK,,,,,,,,
1.877134852,I2C,Setup Read to [0x69] + ACK,,,,,,,,
1.877161544,I2C,0x38 + NAK,,,,,,,,
1.8772371,I2C,Setup Write to [0x69] + ACK,,,,,,,,
1.877264804,I2C,0x7F + ACK,,,,,,,,
1.877291992,I2C,0x20 + ACK,,,,,,,,
1.877350108,I2C,Setup Write to [0x69] + ACK,,,,,,,,
1.877377876,I2C,0x01 + ACK,,,,,,,,
1.877411812,I2C,Setup Read to [0x69] + ACK,,,,,,,,
1.877438504,I2C,0x38 + NAK,,,,,,,,
1.87750406,I2C,Setup Write to [0x69] + ACK,,,,,,,,
1.877531824,I2C,0x15 + ACK,,,,,,,,
1.87756576,I2C,Setup Read to [0x69] + ACK,,,,,,,,
1.877592456,I2C,0x00 + NAK,,,,,,,,
1.877656824,I2C,Setup Write to [0x0C] + NAK,,,,,,,,
1.877701328,I2C,Setup Read to [0x0C] + NAK,,,,,,,,
1.916732656,I2C,Setup Write to [0x69] + ACK,,,,,,,,
1.91676042,I2C,0x7F + ACK,,,,,,,,
1.916787612,I2C,0x00 + ACK,,,,,,,,
1.916845788,I2C,Setup Write to [0x69] + ACK,,,,,,,,
1.916873556,I2C,0x1A + ACK,,,,,,,,
1.916907492,I2C,Setup Read to [0x69] + ACK,,,,,,,,
1.916934184,I2C,0x01 + NAK,,,,,,,,
1.917009804,I2C,Setup Write to [0x69] + ACK,,,,,,,,
1.917037568,I2C,0x7F + ACK,,,,,,,,
1.917064756,I2C,0x00 + ACK,,,,,,,,
1.917122936,I2C,Setup Write to [0x69] + ACK,,,,,,,,
1.917150704,I2C,0x2D + ACK,,,,,,,,
1.91718464,I2C,Setup Read to [0x69] + ACK,,,,,,,,
1.917211268,I2C,0xFF + ACK,,,,,,,,
1.917239024,I2C,0x70 + ACK,,,,,,,,
1.917266772,I2C,0xFF + ACK,,,,,,,,
1.917294528,I2C,0x60 + ACK,,,,,,,,
1.91732228,I2C,0x40 + ACK,,,,,,,,
1.917350032,I2C,0x60 + ACK,,,,,,,,
1.91737778,I2C,0xFE + ACK,,,,,,,,
1.917405536,I2C,0x62 + ACK,,,,,,,,
1.917433292,I2C,0x01 + ACK,,,,,,,,
1.917461044,I2C,0x25 + ACK,,,,,,,,
1.917488792,I2C,0xFF + ACK,,,,,,,,
1.917516544,I2C,0xDD + ACK,,,,,,,,
1.9175443,I2C,0x04 + ACK,,,,,,,,
1.917572108,I2C,0xB0 + NAK,,,,,,,,
1.917700232,I2C,Setup Write to [0x69] + ACK,,,,,,,,
1.917728,I2C,0x7F + ACK,,,,,,,,
1.917755188,I2C,0x20 + ACK,,,,,,,,
1.917813304,I2C,Setup Write to [0x69] + ACK,,,,,,,,
1.917841068,I2C,0x14 + ACK,,,,,,,,
1.917874816,I2C,Setup Read to [0x69] + ACK,,,,,,,,
1.917901512,I2C,0x38 + NAK,,,,,,,,
1.917977068,I2C,Setup Write to [0x69] + ACK,,,,,,,,
1.918004772,I2C,0x7F + ACK,,,,,,,,
1.91803196,I2C,0x20 + ACK,,,,,,,,
1.918091136,I2C,Setup Write to [0x69] + ACK,,,,,,,,
1.918118904,I2C,0x01 + ACK,,,,,,,,
1.91815284,I2C,Setup Read to [0x69] + ACK,,,,,,,,
1.918179532,I2C,0x38 + NAK,,,,,,,,
1.918245088,I2C,Setup Write to [0x69] + ACK,,,,,,,,
1.918272852,I2C,0x15 + ACK,,,,,,,,
1.918306792,I2C,Setup Read to [0x69] + ACK,,,,,,,,
1.918333484,I2C,0x00 + NAK,,,,,,,,
1.918397852,I2C,Setup Write to [0x0C] + NAK,,,,,,,,
1.91844236,I2C,Setup Read to [0x0C] + NAK,,,,,,,,
1.95747362,I2C,Setup Write to [0x69] + ACK,,,,,,,,
1.957501388,I2C,0x7F + ACK,,,,,,,,
1.957528576,I2C,0x00 + ACK,,,,,,,,
1.957586756,I2C,Setup Write to [0x69] + ACK,,,,,,,,
1.95761452,I2C,0x1A + ACK,,,,,,,,
1.957648272,I2C,Setup Read to [0x69] + ACK,,,,,,,,
1.957674964,I2C,0x01 + NAK,,,,,,,,
1.95775058,I2C,Setup Write to [0x69] + ACK,,,,,,,,
1.957778348,I2C,0x7F + ACK,,,,,,,,
1.957805536,I2C,0x00 + ACK,,,,,,,,
1.957863652,I2C,Setup Write to [0x69] + ACK,,,,,,,,
1.957891356,I2C,0x2D + ACK,,,,,,,,
1.957925292,I2C,Setup Read to [0x69] + ACK,,,,,,,,
1.95795192,I2C,0xFF + ACK,,,,,,,,
1.957979676,I2C,0xA8 + ACK,,,,,,,,
1.958007428,I2C,0xFF + ACK,,,,,,,,
1.95803518,I2C,0x90 + ACK,,,,,,,,
1.958062932,I2C,0x40 + ACK,,,,,,,,
1.958090684,I2C,0xC0 + ACK,,,,,,,,
1.958118436,I2C,0xFF + ACK,,,,,,,,
1.958146192,I2C,0x59 + ACK,,,,,,,,
1.95817394,I2C,0xFF + ACK,,,,,,,,
1.958201692,I2C,0xEC + ACK,,,,,,,,
1.958229448,I2C,0x00 + ACK,,,,,,,,
1.958257196,I2C,0xEE + ACK,,,,,,,,
1.958284952,I2C,0x04 + ACK,,,,,,,,
1.958312764,I2C,0xF0 + NAK,,,,,,,,
1.958440824,I2C,Setup Write to [0x69] + ACK,,,,,,,,
1.958468588,I2C,0x7F + ACK,,,,,,,,
1.95849578,I2C,0x20 + ACK,,,,,,,,
1.958553896,I2C,Setup Write to [0x69] + ACK,,,,,,,,
1.95858166,I2C,0x14 + ACK,,,,,,,,
1.958615596,I2C,Setup Read to [0x69] + ACK,,,,,,,,
1.958642288,I2C,0x38 + NAK,,,,,,,,
1.958717844,I2C,Setup Write to [0x69] + ACK,,,,,,,,
1.958745548,I2C,0x7F + ACK,,,,,,,,
1.95877274,I2C,0x20 + ACK,,,,,,,,
1.958830856,I2C,Setup Write to [0x69] + ACK,,,,,,,,
1.95885862,I2C,0x01 + ACK,,,,,,,,
1.958892556,I2C,Setup Read to [0x69] + ACK,,,,,,,,
1.958919248,I2C,0x38 + NAK,,,,,,,,
1.958984804,I2C,Setup Write to [0x69] + ACK,,,,,,,,
1.959012568,I2C,0x15 + ACK,,,,,,,,
1.959046316,I2C,Setup Read to [0x69] + ACK,,,,,,,,
1.959073012,I2C,0x00 + NAK,,,,,,,,
1.95913738,I2C,Setup Write to [0x0C] + NAK,,,,,,,,
1.959181888,I2C,Setup Read to [0x0C] + NAK,,,,,,,,
1.998213152,I2C,Setup Write to [0x69] + ACK,,,,,,,,
1.998240916,I2C,0x7F + ACK,,,,,,,,
1.998268104,I2C,0x00 + ACK,,,,,,,,
1.998326288,I2C,Setup Write to [0x69] + ACK,,,,,,,,
1.998354052,I2C,0x1A + ACK,,,,,,,,
1.998387988,I2C,Setup Read to [0x69] + ACK,,,,,,,,
1.99841468,I2C,0x01 + NAK,,,,,,,,
1.998490296,I2C,Setup Write to [0x69] + ACK,,,,,,,,
1.998518064,I2C,0x7F + ACK,,,,,,,,
1.998545252,I2C,0x00 + ACK,,,,,,,,
1.998603368,I2C,Setup Write to [0x69] + ACK,,,,,,,,
1.998631072,I2C,0x2D + ACK,,,,,,,,
1.998665008,I2C,Setup Read to [0x69] + ACK,,,,,,,,
1.998691636,I2C,0xFF + ACK,,,,,,,,
1.998719396,I2C,0x68 + ACK,,,,,,,,
1.998747144,I2C,0xFF + ACK,,,,,,,,
1.998774896,I2C,0xA0 + ACK,,,,,,,,
1.998802652,I2C,0x40 + ACK,,,,,,,,
1.9988304,I2C,0x98 + ACK,,,,,,,,
1.998858156,I2C,0x00 + ACK,,,,,,,,
1.998885912,I2C,0x0B + ACK,,,,,,,,
1.998913656,I2C,0xFE + ACK,,,,,,,,
1.998941408,I2C,0xB8 + ACK,,,,,,,,
1.998969164,I2C,0x00 + ACK,,,,,,,,
1.998996916,I2C,0x53 + ACK,,,,,,,,
1.999024668,I2C,0x04 + ACK,,,,,,,,
1.99905248,I2C,0xF0 + NAK,,,,,,,,
1.99918054,I2C,Setup Write to [0x69] + ACK,,,,,,,,
1.999208304,I2C,0x7F + ACK,,,,,,,,
1.999235492,I2C,0x20 + ACK,,,,,,,,
1.999293612,I2C,Setup Write to [0x69] + ACK,,,,,,,,
1.999321376,I2C,0x14 + ACK,,,,,,,,
1.999355316,I2C,Setup Read to [0x69] + ACK,,,,,,,,
1.999382008,I2C,0x38 + NAK,,,,,,,,
1.99945756,I2C,Setup Write to [0x69] + ACK,,,,,,,,
1.999485264,I2C,0x7F + ACK,,,,,,,,
1.999512452,I2C,0x20 + ACK,,,,,,,,
1.999570572,I2C,Setup Write to [0x69] + ACK,,,,,,,,
1.999598336,I2C,0x01 + ACK,,,,,,,,
1.999632272,I2C,Setup Read to [0x69] + ACK,,,,,,,,
1.999658968,I2C,0x38 + NAK,,,,,,,,
1.99972452,I2C,Setup Write to [0x69] + ACK,,,,,,,,
1.999752284,I2C,0x15 + ACK,,,,,,,,
1.999786224,I2C,Setup Read to [0x69] + ACK,,,,,,,,
1.999812916,I2C,0x00 + NAK,,,,,,,,
1.999877284,I2C,Setup Write to [0x0C] + NAK,,,,,,,,
1.999921792,I2C,Setup Read to [0x0C] + NAK,,,,,,,,
2.038951868,I2C,Setup Write to [0x69] + ACK,,,,,,,,
2.038979632,I2C,0x7F + ACK,,,,,,,,
2.03900682,I2C,0x00 + ACK,,,,,,,,
2.039065,I2C,Setup Write to [0x69] + ACK,,,,,,,,
2.039092768,I2C,0x1A + ACK,,,,,,,,
2.039126516,I2C,Setup Read to [0x69] + ACK,,,,,,,,
2.039153212,I2C,0x01 + NAK,,,,,,,,
2.039228824,I2C,Setup Write to [0x69] + ACK,,,,,,,,
2.039256592,I2C,0x7F + ACK,,,,,,,,
2.03928378,I2C,0x00 + ACK,,,,,,,,
2.0393419,I2C,Setup Write to [0x69] + ACK,,,,,,,,
2.0393696,I2C,0x2D + ACK,,,,,,,,
2.039403536,I2C,Setup Read to [0x69] + ACK,,,,,,,,
2.039430164,I2C,0xFF + ACK,,,,,,,,
2.03945792,I2C,0x40 + ACK,,,,,,,,
2.039485672,I2C,0xFF + ACK,,,,,,,,
2.039513428,I2C,0x88 + ACK,,,,,,,,
2.03954118,I2C,0x40 + ACK,,,,,,,,
2.039568932,I2C,0x48 + ACK,,,,,,,,
2.039596684,I2C,0x00 + ACK,,,,,,,,
2.039624436,I2C,0x32 + ACK,,,,,,,,
2.039652184,I2C,0xFF + ACK,,,,,,,,
2.03967994,I2C,0x5D + ACK,,,,,,,,
2.039707692,I2C,0xFF + ACK,,,,,,,,
2.039735444,I2C,0x7E + ACK,,,,,,,,
2.039763196,I2C,0x04 + ACK,,,,,,,,
2.039791008,I2C,0xD0 + NAK,,,,,,,,
2.039919132,I2C,Setup Write to [0x69] + ACK,,,,,,,,
2.039946836,I2C,0x7F + ACK,,,,,,,,
2.039974024,I2C,0x20 + ACK,,,,,,,,
2.04003214,I2C,Setup Write to [0x69] + ACK,,,,,,,,
2.040059908,I2C,0x14 + ACK,,,,,,,,
2.040093844,I2C,Setup Read to [0x69] + ACK,,,,,,,,
2.040120536,I2C,0x38 + NAK,,,,,,,,
2.040196088,I2C,Setup Write to [0x69] + ACK,,,,,,,,
2.040223792,I2C,0x7F + ACK,,,,,,,,
2.040250984,I2C,0x20 + ACK,,,,,,,,
2.040309104,I2C,Setup Write to [0x69] + ACK,,,,,,,,
2.040336864,I2C,0x01 + ACK,,,,,,,,
2.0403708,I2C,Setup Read to [0x69] + ACK,,,,,,,,
2.040397496,I2C,0x38 + NAK,,,,,,,,
2.040463048,I2C,Setup Write to [0x69] + ACK,,,,,,,,
2.040490816,I2C,0x15 + ACK,,,,,,,,
2.040524752,I2C,Setup Read to [0x69] + ACK,,,,,,,,
2.040551444,I2C,0x00 + NAK,,,,,,,,
2.040615812,I2C,Setup Write to [0x0C] + NAK,,,,,,,,
2.04066032,I2C,Setup Read to [0x0C] + NAK,,,,,,,,
2.079691584,I2C,Setup Write to [0x69] + ACK,,,,,,,,
2.079719288,I2C,0x7F + ACK,,,,,,,,
2.079746476,I2C,0x00 + ACK,,,,,,,,
2.079804656,I2C,Setup Write to [0x69] + ACK,,,,,,,,
2.07983242,I2C,0x1A + ACK,,,,,,,,
2.079871484,I2C,Setup Read to [0x69] + ACK,,,,,,,,
2.079898176,I2C,0x01 + NAK,,,,,,,,
2.079973792,I2C,Setup Write to [0x69] + ACK,,,,,,,,
2.080001556,I2C,0x7F + ACK,,,,,,,,
2.080028748,I2C,0x00 + ACK,,,,,,,,
2.080086864,I2C,Setup Write to [0x69] + ACK,,,,,,,,
2.080114568,I2C,0x2D + ACK,,,,,,,,
2.080148504,I2C,Setup Read to [0x69] + ACK,,,,,,,,
2.080175136,I2C,0xFF + ACK,,,,,,,,
2.080202888,I2C,0xA0 + ACK,,,,,,,,
2.08023064,I2C,0xFF + ACK,,,,,,,,
2.080258392,I2C,0x80 + ACK,,,,,,,,
2.080286148,I2C,0x40 + ACK,,,,,,,,
2.080313896,I2C,0xF8 + ACK,,,,,,,,
2.080341648,I2C,0xFD + ACK,,,,,,,,
2.0803694,I2C,0xB9 + ACK,,,,,,,,
2.080397152,I2C,0xFF + ACK,,,,,,,,
2.080424908,I2C,0x54 + ACK,,,,,,,,
2.080452656,I2C,0xFF + ACK,,,,,,,,
2.080480408,I2C,0xEC + ACK,,,,,,,,
2.080508164,I2C,0x04 + ACK,,,,,,,,
2.080535976,I2C,0xF0 + NAK,,,,,,,,
2.080664096,I2C,Setup Write to [0x69] + ACK,,,,,,,,
2.080691864,I2C,0x7F + ACK,,,,,,,,
2.080719052,I2C,0x20 + ACK,,,,,,,,
2.080777168,I2C,Setup Write to [0x69] + ACK,,,,,,,,
2.080804936,I2C,0x14 + ACK,,,,,,,,
2.080838684,I2C,Setup Read to [0x69] + ACK,,,,,,,,
2.080865376,I2C,0x38 + NAK,,,,,,,,
2.080939748,I2C,Setup Write to [0x69] + ACK,,,,,,,,
2.080967512,I2C,0x7F + ACK,,,,,,,,
2.0809947,I2C,0x20 + ACK,,,,,,,,
2.081052816,I2C,Setup Write to [0x69] + ACK,,,,,,,,
2.081080584,I2C,0x01 + ACK,,,,,,,,
2.08111452,I2C,Setup Read to [0x69] + ACK,,,,,,,,
2.081141212,I2C,0x38 + NAK,,,,,,,,
2.081206764,I2C,Setup Write to [0x69] + ACK,,,,,,,,
2.081234532,I2C,0x15 + ACK,,,,,,,,
2.081268468,I2C,Setup Read to [0x69] + ACK,,,,,,,,
2.08129516,I2C,0x00 + NAK,,,,,,,,
2.081359532,I2C,Setup Write to [0x0C] + NAK,,,,,,,,
2.081404036,I2C,Setup Read to [0x0C] + NAK,,,,,,,,
2.12043536,I2C,Setup Write to [0x69] + ACK,,,,,,,,
2.120463128,I2C,0x7F + ACK,,,,,,,,
2.120490316,I2C,0x00 + ACK,,,,,,,,
2.120548496,I2C,Setup Write to [0x69] + ACK,,,,,,,,
2.12057626,I2C,0x1A + ACK,,,,,,,,
2.1206102,I2C,Setup Read to [0x69] + ACK,,,,,,,,
2.120636892,I2C,0x01 + NAK,,,,,,,,
2.120712512,I2C,Setup Write to [0x69] + ACK,,,,,,,,
2.120740276,I2C,0x7F + ACK,,,,,,,,
2.120767464,I2C,0x00 + ACK,,,,,,,,
2.120831896,I2C,Setup Write to [0x69] + ACK,,,,,,,,
2.12085966,I2C,0x2D + ACK,,,,,,,,
2.120893596,I2C,Setup Read to [0x69] + ACK,,,,,,,,
2.120920224,I2C,0xFF + ACK,,,,,,,,
2.120947984,I2C,0x68 + ACK,,,,,,,,
2.120975736,I2C,0x00 + ACK,,,,,,,,
2.121003484,I2C,0xA0 + ACK,,,,,,,,
2.121031236,I2C,0x40 + ACK,,,,,,,,
2.121058988,I2C,0xF0 + ACK,,,,,,,,
2.12108674,I2C,0xFE + ACK,,,,,,,,
2.121114492,I2C,0xED + ACK,,,,,,,,
2.121142248,I2C,0x00 + ACK,,,,,,,,
2.121169996,I2C,0x27 + ACK,,,,,,,,
2.121197748,I2C,0xFE + ACK,,,,,,,,
2.121225504,I2C,0x4B + ACK,,,,,,,,
2.121253256,I2C,0x04 + ACK,,,,,,,,
2.121281068,I2C,0xB0 + NAK,,,,,,,,
2.121409188,I2C,Setup Write to [0x69] + ACK,,,,,,,,
2.121436956,I2C,0x7F + ACK,,,,,,,,
2.121464144,I2C,0x20 + ACK,,,,,,,,
2.12152226,I2C,Setup Write to [0x69] + ACK,,,,,,,,
2.121550028,I2C,0x14 + ACK,,,,,,,,
2.121583776,I2C,Setup Read to [0x69] + ACK,,,,,,,,
2.121610468,I2C,0x38 + NAK,,,,,,,,
2.121686024,I2C,Setup Write to [0x69] + ACK,,,,,,,,
2.121713728,I2C,0x7F + ACK,,,,,,,,
2.121740916,I2C,0x20 + ACK,,,,,,,,
2.121799032,I2C,Setup Write to [0x69] + ACK,,,,,,,,
2.1218268,I2C,0x01 + ACK,,,,,,,,
2.121860548,I2C,Setup Read to [0x69] + ACK,,,,,,,,
2.121887244,I2C,0x38 + NAK,,,,,,,,
2.121952796,I2C,Setup Write to [0x69] + ACK,,,,,,,,
2.12198056,I2C,0x15 + ACK,,,,,,,,
2.122014496,I2C,Setup Read to [0x69] + ACK,,,,,,,,
2.122041188,I2C,0x00 + NAK,,,,,,,,
2.12210556,I2C,Setup Write to [0x0C] + NAK,,,,,,,,
2.122150064,I2C,Setup Read to [0x0C] + NAK,,,,,,,,
2.161181328,I2C,Setup Write to [0x69] + ACK,,,,,,,,
2.161209092,I2C,0x7F + ACK,,,,,,,,
2.161236284,I2C,0x00 + ACK,,,,,,,,
2.161294464,I2C,Setup Write to [0x69] + ACK,,,,,,,,
2.161322228,I2C,0x1A + ACK,,,,,,,,
2.161356164,I2C,Setup Read to [0x69] + ACK,,,,,,,,
2.161382856,I2C,0x01 + NAK,,,,,,,,
2.161458476,I2C,Setup Write to [0x69] + ACK,,,,,,,,
2.16148624,I2C,0x7F + ACK,,,,,,,,
2.161513432,I2C,0x00 + ACK,,,,,,,,
2.161571548,I2C,Setup Write to [0x69] + ACK,,,,,,,,
2.161599252,I2C,0x2D + ACK,,,,,,,,
2.161633188,I2C,Setup Read to [0x69] + ACK,,,,,,,,
2.161659816,I2C,0xFF + ACK,,,,,,,,
2.161687572,I2C,0x38 + ACK,,,,,,,,
2.16171532,I2C,0xFF + ACK,,,,,,,,
2.161743076,I2C,0x48 + ACK,,,,,,,,
2.161770828,I2C,0x40 + ACK,,,,,,,,
2.161798576,I2C,0xB8 + ACK,,,,,,,,
2.161826328,I2C,0xFE + ACK,,,,,,,,
2.161854084,I2C,0x9B + ACK,,,,,,,,
2.161881836,I2C,0x00 + ACK,,,,,,,,
2.161909592,I2C,0x7B + ACK,,,,,,,,
2.16193734,I2C,0xFE + ACK,,,,,,,,
2.161965092,I2C,0xC1 + ACK,,,,,,,,
2.161992848,I2C,0x04 + ACK,,,,,,,,
2.16202066,I2C,0xE0 + NAK,,,,,,,,
2.162148716,I2C,Setup Write to [0x69] + ACK,,,,,,,,
2.162176484,I2C,0x7F + ACK,,,,,,,,
2.162203672,I2C,0x20 + ACK,,,,,,,,
2.162261792,I2C,Setup Write to [0x69] + ACK,,,,,,,,
2.162289556,I2C,0x14 + ACK,,,,,,,,
2.162323492,I2C,Setup Read to [0x69] + ACK,,,,,,,,
2.162350184,I2C,0x38 + NAK,,,,,,,,
2.16242574,I2C,Setup Write to [0x69] + ACK,,,,,,,,
2.162453444,I2C,0x7F + ACK,,,,,,,,
2.162480632,I2C,0x20 + ACK,,,,,,,,
2.162538748,I2C,Setup Write to [0x69] + ACK,,,,,,,,
2.162566516,I2C,0x01 + ACK,,,,,,,,
2.162600452,I2C,Setup Read to [0x69] + ACK,,,,,,,,
2.162627144,I2C,0x38 + NAK,,,,,,,,
2.1626927,I2C,Setup Write to [0x69] + ACK,,,,,,,,
2.162720464,I2C,0x15 + ACK,,,,,,,,
2.1627544,I2C,Setup Read to [0x69] + ACK,,,,,,,,
2.162781092,I2C,0x00 + NAK,,,,,,,,
2.162851712,I2C,Setup Write to [0x0C] + NAK,,,,,,,,
2.16289628,I2C,Setup Read to [0x0C] + NAK,,,,,,,,
2.201928856,I2C,Setup Write to [0x69] + ACK,,,,,,,,
2.20195656,I2C,0x7F + ACK,,,,,,,,
2.201983752,I2C,0x00 + ACK,,,,,,,,
2.202041932,I2C,Setup Write to [0x69] + ACK,,,,,,,,
2.202069696,I2C,0x1A + ACK,,,,,,,,
2.202103632,I2C,Setup Read to [0x69] + ACK,,,,,,,,
2.202130324,I2C,0x01 + NAK,,,,,,,,
2.202205944,I2C,Setup Write to [0x69] + ACK,,,,,,,,
2.202233708,I2C,0x7F + ACK,,,,,,,,
2.2022609,I2C,0x00 + ACK,,,,,,,,
2.202319016,I2C,Setup Write to [0x69] + ACK,,,,,,,,
2.202346716,I2C,0x2D + ACK,,,,,,,,
2.202380656,I2C,Setup Read to [0x69] + ACK,,,,,,,,
2.202407284,I2C,0xFF + ACK,,,,,,,,
2.20243504,I2C,0x08 + ACK,,,,,,,,
2.202462788,I2C,0xFF + ACK,,,,,,,,
2.20249054,I2C,0xF0 + ACK,,,,,,,,
2.202518296,I2C,0x40 + ACK,,,,,,,,
2.202546044,I2C,0x88 + ACK,,,,,,,,
2.202573796,I2C,0xFF + ACK,,,,,,,,
2.202601552,I2C,0xB7 + ACK,,,,,,,,
2.202629304,I2C,0xFE + ACK,,,,,,,,
2.202657056,I2C,0x84 + ACK,,,,,,,,
2.202684812,I2C,0x00 + ACK,,,,,,,,
2.202712564,I2C,0x46 + ACK,,,,,,,,
2.202740316,I2C,0x04 + ACK,,,,,,,,
2.202768124,I2C,0xD0 + NAK,,,,,,,,
2.202896184,I2C,Setup Write to [0x69] + ACK,,,,,,,,
2.202923948,I2C,0x7F + ACK,,,,,,,,
2.20295114,I2C,0x20 + ACK,,,,,,,,
2.20300926,I2C,Setup Write to [0x69] + ACK,,,,,,,,
2.203037024,I2C,0x14 + ACK,,,,,,,,
2.203070956,I2C,Setup Read to [0x69] + ACK,,,,,,,,
2.203097652,I2C,0x38 + NAK,,,,,,,,
2.203173208,I2C,Setup Write to [0x69] + ACK,,,,,,,,
2.203200908,I2C,0x7F + ACK,,,,,,,,
2.2032281,I2C,0x20 + ACK,,,,,,,,
2.203286216,I2C,Setup Write to [0x69] + ACK,,,,,,,,
2.20331398,I2C,0x01 + ACK,,,,,,,,
2.20334792,I2C,Setup Read to [0x69] + ACK,,,,,,,,
2.203374608,I2C,0x38 + NAK,,,,,,,,
2.203440168,I2C,Setup Write to [0x69] + ACK,,,,,,,,
2.203467932,I2C,0x15 + ACK,,,,,,,,
2.203501868,I2C,Setup Read to [0x69] + ACK,,,,,,,,
2.20352856,I2C,0x00 + NAK,,,,,,,,
2.203592928,I2C,Setup Write to [0x0C] + NAK,,,,,,,,
2.203637436,I2C,Setup Read to [0x0C] + NAK,,,,,,,,
2.242669948,I2C,Setup Write to [0x69] + ACK,,,,,,,,
2.242697716,I2C,0x7F + ACK,,,,,,,,
2.242724904,I2C,0x00 + ACK,,,,,,,,
2.242783084,I2C,Setup Write to [0x69] + ACK,,,,,,,,
2.242810848,I2C,0x1A + ACK,,,,,,,,
2.2428446,I2C,Setup Read to [0x69] + ACK,,,,,,,,
2.242871292,I2C,0x01 + NAK,,,,,,,,
2.242946908,I2C,Setup Write to [0x69] + ACK,,,,,,,,
2.242974676,I2C,0x7F + ACK,,,,,,,,
2.243001864,I2C,0x00 + ACK,,,,,,,,
2.24305998,I2C,Setup Write to [0x69] + ACK,,,,,,,,
2.243087684,I2C,0x2D + ACK,,,,,,,,
2.24312162,I2C,Setup Read to [0x69] + ACK,,,,,,,,
2.243148248,I2C,0xFF + ACK,,,,,,,,
2.243176004,I2C,0x20 + ACK,,,,,,,,
2.243203756,I2C,0xFF + ACK,,,,,,,,
2.243231508,I2C,0x00 + ACK,,,,,,,,
2.243259264,I2C,0x40 + ACK,,,,,,,,
2.243287012,I2C,0xE0 + ACK,,,,,,,,
2.243314768,I2C,0x00 + ACK,,,,,,,,
2.24334252,I2C,0x3F + ACK,,,,,,,,
2.243370268,I2C,0xFE + ACK,,,,,,,,
2.243398024,I2C,0x39 + ACK,,,,,,,,
2.243425776,I2C,0x01 + ACK,,,,,,,,
2.243453528,I2C,0x73 + ACK,,,,,,,,
2.24348128,I2C,0x04 + ACK,,,,,,,,
2.243509092,I2C,0xA0 + NAK,,,,,,,,
2.243637216,I2C,Setup Write to [0x69] + ACK,,,,,,,,
2.24366498,I2C,0x7F + ACK,,,,,,,,
2.243692168,I2C,0x20 + ACK,,,,,,,,
2.243750224,I2C,Setup Write to [0x69] + ACK,,,,,,,,
2.243777988,I2C,0x14 + ACK,,,,,,,,
2.243811924,I2C,Setup Read to [0x69] + ACK,,,,,,,,
2.24383862,I2C,0x38 + NAK,,,,,,,,
2.243914172,I2C,Setup Write to [0x69] + ACK,,,,,,,,
2.243941876,I2C,0x7F + ACK,,,,,,,,
2.243969064,I2C,0x20 + ACK,,,,,,,,
2.24402718,I2C,Setup Write to [0x69] + ACK,,,,,,,,
2.244054944,I2C,0x01 + ACK,,,,,,,,
2.244088884,I2C,Setup Read to [0x69] + ACK,,,,,,,,
2.244115576,I2C,0x38 + NAK,,,,,,,,
2.244181132,I2C,Setup Write to [0x69] + ACK,,,,,,,,
2.2442089,I2C,0x15 + ACK,,,,,,,,
2.244242832,I2C,Setup Read to [0x69] + ACK,,,,,,,,
2.244269528,I2C,0x00 + NAK,,,,,,,,
2.244333896,I2C,Setup Write to [0x0C] + NAK,,,,,,,,
2.244378404,I2C,Setup Read to [0x0C] + NAK,,,,,,,,
2.28341098,I2C,Setup Write to [0x69] + ACK,,,,,,,,
2.283438744,I2C,0x7F + ACK,,,,,,,,
2.283465932,I2C,0x00 + ACK,,,,,,,,
2.283524112,I2C,Setup Write to [0x69] + ACK,,,,,,,,
2.283551876,I2C,0x1A + ACK,,,,,,,,
2.283585816,I2C,Setup Read to [0x69] + ACK,,,,,,,,
2.283612508,I2C,0x01 + NAK,,,,,,,,
2.283693124,I2C,Setup Write to [0x69] + ACK,,,,,,,,
2.283720892,I2C,0x7F + ACK,,,,,,,,
2.28374808,I2C,0x00 + ACK,,,,,,,,
2.283806264,I2C,Setup Write to [0x69] + ACK,,,,,,,,
2.283834024,I2C,0x2D + ACK,,,,,,,,
2.283867964,I2C,Setup Read to [0x69] + ACK,,,,,,,,
2.283894596,I2C,0x00 + ACK,,,,,,,,
2.283922348,I2C,0x40 + ACK,,,,,,,,
2.283950096,I2C,0xFF + ACK,,,,,,,,
2.283977848,I2C,0xA0 + ACK,,,,,,,,
2.284005604,I2C,0x40 + ACK,,,,,,,,
2.284033356,I2C,0x80 + ACK,,,,,,,,
2.284061104,I2C,0xFE + ACK,,,,,,,,
2.28408886,I2C,0xAB + ACK,,,,,,,,
2.284116612,I2C,0x00 + ACK,,,,,,,,
2.284144364,I2C,0x75 + ACK,,,,,,,,
2.284172116,I2C,0xFF + ACK,,,,,,,,
2.284199868,I2C,0xC0 + ACK,,,,,,,,
2.28422762,I2C,0x04 + ACK,,,,,,,,
2.284255432,I2C,0xB0 + NAK,,,,,,,,
2.284383556,I2C,Setup Write to [0x69] + ACK,,,,,,,,
2.28441132,I2C,0x7F + ACK,,,,,,,,
2.284438512,I2C,0x20 + ACK,,,,,,,,
2.284496628,I2C,Setup Write to [0x69] + ACK,,,,,,,,
2.284524392,I2C,0x14 + ACK,,,,,,,,
2.284558144,I2C,Setup Read to [0x69] + ACK,,,,,,,,
2.284584836,I2C,0x38 + NAK,,,,,,,,
2.284660392,I2C,Setup Write to [0x69] + ACK,,,,,,,,
2.284688092,I2C,0x7F + ACK,,,,,,,,
2.284715284,I2C,0x20 + ACK,,,,,,,,
2.2847734,I2C,Setup Write to [0x69] + ACK,,,,,,,,
2.284801164,I2C,0x01 + ACK,,,,,,,,
2.284834912,I2C,Setup Read to [0x69] + ACK,,,,,,,,
2.284861608,I2C,0x38 + NAK,,,,,,,,
2.28492716,I2C,Setup Write to [0x69] + ACK,,,,,,,,
2.284954928,I2C,0x15 + ACK,,,,,,,,
2.284988864,I2C,Setup Read to [0x69] + ACK,,,,,,,,
2.28501556,I2C,0x00 + NAK,,,,,,,,
2.285079924,I2C,Setup Write to [0x0C] + NAK,,,,,,,,
2.285124432,I2C,Setup Read to [0x0C] + NAK,,,,,,,,
2.324153256,I2C,Setup Write to [0x69] + ACK,,,,,,,,
2.324181024,I2C,0x7F + ACK,,,,,,,,
2.324208212,I2C,0x00 + ACK,,,,,,,,
2.324266392,I2C,Setup Write to [0x69] + ACK,,,,,,,,
2.324294156,I2C,0x1A + ACK,,,,,,,,
2.324328096,I2C,Setup Read to [0x69] + ACK,,,,,,,,
2.324354788,I2C,0x01 + NAK,,,,,,,,
2.324430404,I2C,Setup Write to [0x69] + ACK,,,,,,,,
2.324458168,I2C,0x7F + ACK,,,,,,,,
2.32448536,I2C,0x00 + ACK,,,,,,,,
2.324543476,I2C,Setup Write to [0x69] + ACK,,,,,,,,
2.32457118,I2C,0x2D + ACK,,,,,,,,
2.324605116,I2C,Setup Read to [0x69] + ACK,,,,,,,,
2.324631744,I2C,0xFF + ACK,,,,,,,,
2.324659504,I2C,0x58 + ACK,,,,,,,,
2.324687256,I2C,0x00 + ACK,,,,,,,,
2.324715004,I2C,0x30 + ACK,,,,,,,,
2.32474276,I2C,0x40 + ACK,,,,,,,,
2.324770508,I2C,0x58 + ACK,,,,,,,,
2.32479826,I2C,0xFE + ACK,,,,,,,,
2.324826012,I2C,0x3F + ACK,,,,,,,,
2.324853764,I2C,0x00 + ACK,,,,,,,,
2.324881516,I2C,0xC8 + ACK,,,,,,,,
2.324909268,I2C,0xFF + ACK,,,,,,,,
2.324937024,I2C,0x75 + ACK,,,,,,,,
2.324964776,I2C,0x04 + ACK,,,,,,,,
2.324992588,I2C,0xF0 + NAK,,,,,,,,
2.325120644,I2C,Setup Write to [0x69] + ACK,,,,,,,,
2.325148412,I2C,0x7F + ACK,,,,,,,,
2.325175604,I2C,0x20 + ACK,,,,,,,,
2.325233716,I2C,Setup Write to [0x69] + ACK,,,,,,,,
2.325261484,I2C,0x14 + ACK,,,,,,,,
2.32529542,I2C,Setup Read to [0x69] + ACK,,,,,,,,
2.325322112,I2C,0x38 + NAK,,,,,,,,
2.325397668,I2C,Setup Write to [0x69] + ACK,,,,,,,,
2.325425372,I2C,0x7F + ACK,,,,,,,,
2.32545256,I2C,0x20 + ACK,,,,,,,,
2.32551068,I2C,Setup Write to [0x69] + ACK,,,,,,,,
2.325538444,I2C,0x01 + ACK,,,,,,,,
2.32557238,I2C,Setup Read to [0x69] + ACK,,,,,,,,
2.325599076,I2C,0x38 + NAK,,,,,,,,
2.325670876,I2C,Setup Write to [0x69] + ACK,,,,,,,,
2.325698644,I2C,0x15 + ACK,,,,,,,,
2.325732392,I2C,Setup Read to [0x69] + ACK,,,,,,,,
2.325759084,I2C,0x00 + NAK,,,,,,,,
2.325823456,I2C,Setup Write to [0x0C] + NAK,,,,,,,,
2.32586796,I2C,Setup Read to [0x0C] + NAK,,,,,,,,
2.364905472,I2C,Setup Write to [0x69] + ACK,,,,,,,,
2.36493318,I2C,0x7F + ACK,,,,,,,,
2.364960368,I2C,0x00 + ACK,,,,,,,,
2.365018548,I2C,Setup Write to [0x69] + ACK,,,,,,,,
2.365046312,I2C,0x1A + ACK,,,,,,,,
2.365080248,I2C,Setup Read to [0x69] + ACK,,,,,,,,
2.36510694,I2C,0x01 + NAK,,,,,,,,
2.36518256,I2C,Setup Write to [0x69] + ACK,,,,,,,,
2.365210324,I2C,0x7F + ACK,,,,,,,,
2.365237512,I2C,0x00 + ACK,,,,,,,,
2.365295632,I2C,Setup Write to [0x69] + ACK,,,,,,,,
2.365323336,I2C,0x2D + ACK,,,,,,,,
2.365357272,I2C,Setup Read to [0x69] + ACK,,,,,,,,
2.3653839,I2C,0xFF + ACK,,,,,,,,
2.365411652,I2C,0x88 + ACK,,,,,,,,
2.365439404,I2C,0xFF + ACK,,,,,,,,
2.365467156,I2C,0xA0 + ACK,,,,,,,,
2.365494912,I2C,0x41 + ACK,,,,,,,,
2.365522664,I2C,0x58 + ACK,,,,,,,,
2.365550412,I2C,0xFF + ACK,,,,,,,,
2.365583988,I2C,0x50 + ACK,,,,,,,,
2.365611672,I2C,0x00 + ACK,,,,,,,,
2.36563942,I2C,0x87 + ACK,,,,,,,,
2.365667176,I2C,0x00 + ACK,,,,,,,,
2.365694928,I2C,0x73 + ACK,,,,,,,,
2.365722684,I2C,0x04 + ACK,,,,,,,,
2.365750496,I2C,0x80 + NAK,,,,,,,,
2.365878612,I2C,Setup Write to [0x69] + ACK,,,,,,,,
2.36590638,I2C,0x7F + ACK,,,,,,,,
2.365933568,I2C,0x20 + ACK,,,,,,,,
2.365991688,I2C,Setup Write to [0x69] + ACK,,,,,,,,
2.366019448,I2C,0x14 + ACK,,,,,,,,
2.3660532,I2C,Setup Read to [0x69] + ACK,,,,,,,,
2.366079892,I2C,0x38 + NAK,,,,,,,,
2.366155448,I2C,Setup Write to [0x69] + ACK,,,,,,,,
2.366183152,I2C,0x7F + ACK,,,,,,,,
2.36621034,I2C,0x20 + ACK,,,,,,,,
2.366268456,I2C,Setup Write to [0x69] + ACK,,,,,,,,
2.366296224,I2C,0x01 + ACK,,,,,,,,
2.36633016,I2C,Setup Read to [0x69] + ACK,,,,,,,,
2.366356852,I2C,0x38 + NAK,,,,,,,,
2.366422408,I2C,Setup Write to [0x69] + ACK,,,,,,,,
2.366450172,I2C,0x15 + ACK,,,,,,,,
2.366484108,I2C,Setup Read to [0x69] + ACK,,,,,,,,
2.366510804,I2C,0x00 + NAK,,,,,,,,
2.366575172,I2C,Setup Write to [0x0C] + NAK,,,,,,,,
2.366624928,I2C,Setup Read to [0x0C] + NAK,,,,,,,,
2.405656252,I2C,Setup Write to [0x69] + ACK,,,,,,,,
2.40568402,I2C,0x7F + ACK,,,,,,,,
2.405711208,I2C,0x00 + ACK,,,,,,,,
2.405769388,I2C,Setup Write to [0x69] + ACK,,,,,,,,
2.405797152,I2C,0x1A + ACK,,,,,,,,
2.405830904,I2C,Setup Read to [0x69] + ACK,,,,,,,,
2.405857596,I2C,0x01 + NAK,,,,,,,,
2.405933212,I2C,Setup Write to [0x69] + ACK,,,,,,,,
2.40596098,I2C,0x7F + ACK,,,,,,,,
2.405988168,I2C,0x00 + ACK,,,,,,,,
2.406046284,I2C,Setup Write to [0x69] + ACK,,,,,,,,
2.406073988,I2C,0x2D + ACK,,,,,,,,
2.406107924,I2C,Setup Read to [0x69] + ACK,,,,,,,,
2.406134552,I2C,0xFF + ACK,,,,,,,,
2.406162304,I2C,0x80 + ACK,,,,,,,,
2.40619006,I2C,0xFF + ACK,,,,,,,,
2.406217812,I2C,0xF8 + ACK,,,,,,,,
2.406245564,I2C,0x40 + ACK,,,,,,,,
2.40627332,I2C,0x50 + ACK,,,,,,,,
2.406301068,I2C,0xFF + ACK,,,,,,,,
2.40632882,I2C,0xF2 + ACK,,,,,,,,
2.406356572,I2C,0xFF + ACK,,,,,,,,
2.406384328,I2C,0x12 + ACK,,,,,,,,
2.40641208,I2C,0x00 + ACK,,,,,,,,
2.406439836,I2C,0x52 + ACK,,,,,,,,
2.406467584,I2C,0x04 + ACK,,,,,,,,
2.406495396,I2C,0xF0 + NAK,,,,,,,,
2.406629704,I2C,Setup Write to [0x69] + ACK,,,,,,,,
2.406657472,I2C,0x7F + ACK,,,,,,,,
2.40668466,I2C,0x20 + ACK,,,,,,,,
2.40674278,I2C,Setup Write to [0x69] + ACK,,,,,,,,
2.406770544,I2C,0x14 + ACK,,,,,,,,
2.40680448,I2C,Setup Read to [0x69] + ACK,,,,,,,,
2.406831172,I2C,0x38 + NAK,,,,,,,,
2.406906728,I2C,Setup Write to [0x69] + ACK,,,,,,,,
2.406934432,I2C,0x7F + ACK,,,,,,,,
2.40696162,I2C,0x20 + ACK,,,,,,,,
2.40701974,I2C,Setup Write to [0x69] + ACK,,,,,,,,
2.407047504,I2C,0x01 + ACK,,,,,,,,
2.40708144,I2C,Setup Read to [0x69] + ACK,,,,,,,,
2.407108132,I2C,0x38 + NAK,,,,,,,,
2.407173688,I2C,Setup Write to [0x69] + ACK,,,,,,,,
2.407201452,I2C,0x15 + ACK,,,,,,,,
2.407235388,I2C,Setup Read to [0x69] + ACK,,,,,,,,
2.40726208,I2C,0x00 + NAK,,,,,,,,
2.407326452,I2C,Setup Write to [0x0C] + NAK,,,,,,,,
2.407370956,I2C,Setup Read to [0x0C] + NAK,,,,,,,,
2.44640222,I2C,Setup Write to [0x69] + ACK,,,,,,,,
2.446429988,I2C,0x7F + ACK,,,,,,,,
2.446457176,I2C,0x00 + ACK,,,,,,,,
2.446516856,I2C,Setup Write to [0x69] + ACK,,,,,,,,
2.44654462,I2C,0x1A + ACK,,,,,,,,
2.446578556,I2C,Setup Read to [0x69] + ACK,,,,,,,,
2.446605252,I2C,0x01 + NAK,,,,,,,,
2.446680868,I2C,Setup Write to [0x69] + ACK,,,,,,,,
2.446708636,I2C,0x7F + ACK,,,,,,,,
2.44673582,I2C,0x00 + ACK,,,,,,,,
2.44679394,I2C,Setup Write to [0x69] + ACK,,,,,,,,
2.44682164,I2C,0x2D + ACK,,,,,,,,
2.44685558,I2C,Setup Read to [0x69] + ACK,,,,,,,,
2.446882208,I2C,0xFF + ACK,,,,,,,,
2.446909964,I2C,0x78 + ACK,,,,,,,,
2.446937716,I2C,0x00 + ACK,,,,,,,,
2.446965464,I2C,0x90 + ACK,,,,,,,,
2.44699322,I2C,0x40 + ACK,,,,,,,,
2.447020968,I2C,0xC8 + ACK,,,,,,,,
2.447048724,I2C,0xFF + ACK,,,,,,,,
2.447076476,I2C,0xA0 + ACK,,,,,,,,
2.447104232,I2C,0x00 + ACK,,,,,,,,
2.44713198,I2C,0x03 + ACK,,,,,,,,
2.447159732,I2C,0xFF + ACK,,,,,,,,
2.447187488,I2C,0x55 + ACK,,,,,,,,
2.44721524,I2C,0x04 + ACK,,,,,,,,
2.447243048,I2C,0xF0 + NAK,,,,,,,,
2.447371172,I2C,Setup Write to [0x69] + ACK,,,,,,,,
2.447398936,I2C,0x7F + ACK,,,,,,,,
2.447426124,I2C,0x20 + ACK,,,,,,,,
2.447484244,I2C,Setup Write to [0x69] + ACK,,,,,,,,
2.447511948,I2C,0x14 + ACK,,,,,,,,
2.447545884,I2C,Setup Read to [0x69] + ACK,,,,,,,,
2.447572576,I2C,0x38 + NAK,,,,,,,,
2.447648132,I2C,Setup Write to [0x69] + ACK,,,,,,,,
2.447675832,I2C,0x7F + ACK,,,,,,,,
2.447703024,I2C,0x20 + ACK,,,,,,,,
2.447761144,I2C,Setup Write to [0x69] + ACK,,,,,,,,
2.447788908,I2C,0x01 + ACK,,,,,,,,
2.447822844,I2C,Setup Read to [0x69] + ACK,,,,,,,,
2.447849536,I2C,0x38 + NAK,,,,,,,,
2.447915092,I2C,Setup Write to [0x69] + ACK,,,,,,,,
2.447942856,I2C,0x15 + ACK,,,,,,,,
2.447976792,I2C,Setup Read to [0x69] + ACK,,,,,,,,
2.448003484,I2C,0x00 + NAK,,,,,,,,
2.448067856,I2C,Setup Write to [0x0C] + NAK,,,,,,,,
2.44811236,I2C,Setup Read to [0x0C] + NAK,,,,,,,,
2.487144876,I2C,Setup Write to [0x69] + ACK,,,,,,,,
2.48717264,I2C,0x7F + ACK,,,,,,,,
2.487199828,I2C,0x00 + ACK,,,,,,,,
2.487258008,I2C,Setup Write to [0x69] + ACK,,,,,,,,
2.487285776,I2C,0x1A + ACK,,,,,,,,
2.487319524,I2C,Setup Read to [0x69] + ACK,,,,,,,,
2.48734622,I2C,0x01 + NAK,,,,,,,,
2.487421832,I2C,Setup Write to [0x69] + ACK,,,,,,,,
2.487449724,I2C,0x7F + ACK,,,,,,,,
2.487476912,I2C,0x00 + ACK,,,,,,,,
2.487535032,I2C,Setup Write to [0x69] + ACK,,,,,,,,
2.487562732,I2C,0x2D + ACK,,,,,,,,
2.487596672,I2C,Setup Read to [0x69] + ACK,,,,,,,,
2.4876233,I2C,0x00 + ACK,,,,,,,,
2.487651056,I2C,0x38 + ACK,,,,,,,,
2.487678804,I2C,0xFF + ACK,,,,,,,,
2.487706556,I2C,0x98 + ACK,,,,,,,,
2.487734316,I2C,0x40 + ACK,,,,,,,,
2.487762064,I2C,0xE0 + ACK,,,,,,,,
2.487789816,I2C,0xFE + ACK,,,,,,,,
2.487817568,I2C,0x11 + ACK,,,,,,,,
2.48784532,I2C,0x00 + ACK,,,,,,,,
2.487873072,I2C,0x77 + ACK,,,,,,,,
2.487900824,I2C,0xFF + ACK,,,,,,,,
2.487928576,I2C,0xB0 + ACK,,,,,,,,
2.487956328,I2C,0x04 + ACK,,,,,,,,
2.48798414,I2C,0xA0 + NAK,,,,,,,,
2.488112264,I2C,Setup Write to [0x69] + ACK,,,,,,,,
2.488140028,I2C,0x7F + ACK,,,,,,,,
2.48816722,I2C,0x20 + ACK,,,,,,,,
2.488225336,I2C,Setup Write to [0x69] + ACK,,,,,,,,
2.4882531,I2C,0x14 + ACK,,,,,,,,
2.488286848,I2C,Setup Read to [0x69] + ACK,,,,,,,,
2.488313544,I2C,0x38 + NAK,,,,,,,,
2.488389096,I2C,Setup Write to [0x69] + ACK,,,,,,,,
2.4884168,I2C,0x7F + ACK,,,,,,,,
2.488443992,I2C,0x20 + ACK,,,,,,,,
2.488504108,I2C,Setup Write to [0x69] + ACK,,,,,,,,
2.488531872,I2C,0x01 + ACK,,,,,,,,
2.488565808,I2C,Setup Read to [0x69] + ACK,,,,,,,,
2.4885925,I2C,0x38 + NAK,,,,,,,,
2.488658056,I2C,Setup Write to [0x69] + ACK,,,,,,,,
2.488685824,I2C,0x15 + ACK,,,,,,,,
2.48871976,I2C,Setup Read to [0x69] + ACK,,,,,,,,
2.488746456,I2C,0x00 + NAK,,,,,,,,
2.48881082,I2C,Setup Write to [0x0C] + NAK,,,,,,,,
2.488855328,I2C,Setup Read to [0x0C] + NAK,,,,,,,,
2.527889092,I2C,Setup Write to [0x69] + ACK,,,,,,,,
2.527916792,I2C,0x7F + ACK,,,,,,,,
2.527943984,I2C,0x00 + ACK,,,,,,,,
2.528002164,I2C,Setup Write to [0x69] + ACK,,,,,,,,
2.528029928,I2C,0x1A + ACK,,,,,,,,
2.528063868,I2C,Setup Read to [0x69] + ACK,,,,,,,,
2.52809056,I2C,0x01 + NAK,,,,,,,,
2.528166176,I2C,Setup Write to [0x69] + ACK,,,,,,,,
2.52819394,I2C,0x7F + ACK,,,,,,,,
2.528221132,I2C,0x00 + ACK,,,,,,,,
2.528279248,I2C,Setup Write to [0x69] + ACK,,,,,,,,
2.528306948,I2C,0x2D + ACK,,,,,,,,
2.528340888,I2C,Setup Read to [0x69] + ACK,,,,,,,,
2.528367516,I2C,0xFE + ACK,,,,,,,,
2.528395268,I2C,0x90 + ACK,,,,,,,,
2.528423024,I2C,0x00 + ACK,,,,,,,,
2.528450776,I2C,0x08 + ACK,,,,,,,,
2.528478528,I2C,0x41 + ACK,,,,,,,,
2.52850628,I2C,0x20 + ACK,,,,,,,,
2.528534032,I2C,0xFE + ACK,,,,,,,,
2.528561784,I2C,0xEE + ACK,,,,,,,,
2.528589536,I2C,0x00 + ACK,,,,,,,,
2.528617288,I2C,0x00 + ACK,,,,,,,,
2.528645036,I2C,0xFE + ACK,,,,,,,,
2.528672788,I2C,0x8B + ACK,,,,,,,,
2.528700544,I2C,0x04 + ACK,,,,,,,,
2.528728356,I2C,0xD0 + NAK,,,,,,,,
2.528856416,I2C,Setup Write to [0x69] + ACK,,,,,,,,
2.528884184,I2C,0x7F + ACK,,,,,,,,
2.528911372,I2C,0x20 + ACK,,,,,,,,
2.528969488,I2C,Setup Write to [0x69] + ACK,,,,,,,,
2.528997252,I2C,0x14 + ACK,,,,,,,,
2.529031192,I2C,Setup Read to [0x69] + ACK,,,,,,,,
2.529057884,I2C,0x38 + NAK,,,,,,,,
2.52913344,I2C,Setup Write to [0x69] + ACK,,,,,,,,
2.52916114,I2C,0x7F + ACK,,,,,,,,
2.529188332,I2C,0x20 + ACK,,,,,,,,
2.529246448,I2C,Setup Write to [0x69] + ACK,,,,,,,,
2.529274216,I2C,0x01 + ACK,,,,,,,,
2.529308152,I2C,Setup Read to [0x69] + ACK,,,,,,,,
2.529334844,I2C,0x38 + NAK,,,,,,,,
2.529400396,I2C,Setup Write to [0x69] + ACK,,,,,,,,
2.529428164,I2C,0x15 + ACK,,,,,,,,
2.529461912,I2C,Setup Read to [0x69] + ACK,,,,,,,,
2.529488604,I2C,0x00 + NAK,,,,,,,,
2.529552972,I2C,Setup Write to [0x0C] + NAK,,,,,,,,
2.52959748,I2C,Setup Read to [0x0C] + NAK,,,,,,,,
2.568628744,I2C,Setup Write to [0x69] + ACK,,,,,,,,
2.568656512,I2C,0x7F + ACK,,,,,,,,
2.5686837,I2C,0x00 + ACK,,,,,,,,
2.56874188,I2C,Setup Write to [0x69] + ACK,,,,,,,,
2.568769644,I2C,0x1A + ACK,,,,,,,,
2.56880358,I2C,Setup Read to [0x69] + ACK,,,,,,,,
2.568830276,I2C,0x01 + NAK,,,,,,,,
2.568905892,I2C,Setup Write to [0x69] + ACK,,,,,,,,
2.568933656,I2C,0x7F + ACK,,,,,,,,
2.568960848,I2C,0x00 + ACK,,,,,,,,
2.569018964,I2C,Setup Write to [0x69] + ACK,,,,,,,,
2.569046664,I2C,0x2D + ACK,,,,,,,,
2.569080604,I2C,Setup Read to [0x69] + ACK,,,,,,,,
2.569107232,I2C,0xFF + ACK,,,,,,,,
2.569134984,I2C,0xD8 + ACK,,,,,,,,
2.569162736,I2C,0xFF + ACK,,,,,,,,
2.569190492,I2C,0xA0 + ACK,,,,,,,,
2.569218244,I2C,0x41 + ACK,,,,,,,,
2.569245992,I2C,0x98 + ACK,,,,,,,,
2.569273748,I2C,0x00 + ACK,,,,,,,,
2.5693015,I2C,0x00 + ACK,,,,,,,,
2.569329248,I2C,0xFF + ACK,,,,,,,,
2.569357004,I2C,0x6D + ACK,,,,,,,,
2.569384756,I2C,0x00 + ACK,,,,,,,,
2.569412512,I2C,0x77 + ACK,,,,,,,,
2.569440264,I2C,0x04 + ACK,,,,,,,,
2.569468072,I2C,0xF0 + NAK,,,,,,,,
2.569596132,I2C,Setup Write to [0x69] + ACK,,,,,,,,
2.569623896,I2C,0x7F + ACK,,,,,,,,
2.569651088,I2C,0x20 + ACK,,,,,,,,
2.569709204,I2C,Setup Write to [0x69] + ACK,,,,,,,,
2.569736968,I2C,0x14 + ACK,,,,,,,,
2.569770908,I2C,Setup Read to [0x69] + ACK,,,,,,,,
2.569797604,I2C,0x38 + NAK,,,,,,,,
2.569873156,I2C,Setup Write to [0x69] + ACK,,,,,,,,
2.56990086,I2C,0x7F + ACK,,,,,,,,
2.569928048,I2C,0x20 + ACK,,,,,,,,
2.569986164,I2C,Setup Write to [0x69] + ACK,,,,,,,,
2.570013932,I2C,0x01 + ACK,,,,,,,,
2.570047868,I2C,Setup Read to [0x69] + ACK,,,,,,,,
2.57007456,I2C,0x38 + NAK,,,,,,,,
2.570140112,I2C,Setup Write to [0x69] + ACK,,,,,,,,
2.57016788,I2C,0x15 + ACK,,,,,,,,
2.570201816,I2C,Setup Read to [0x69] + ACK,,,,,,,,
2.570228508,I2C,0x00 + NAK,,,,,,,,
2.570292876,I2C,Setup Write to [0x0C] + NAK,,,,,,,,
2.570337384,I2C,Setup Read to [0x0C] + NAK,,,,,,,,
2.609368708,I2C,Setup Write to [0x69] + ACK,,,,,,,,
2.609396476,I2C,0x7F + ACK,,,,,,,,
2.609423668,I2C,0x00 + ACK,,,,,,,,
2.609481844,I2C,Setup Write to [0x69] + ACK,,,,,,,,
2.609509608,I2C,0x1A + ACK,,,,,,,,
2.60954336,I2C,Setup Read to [0x69] + ACK,,,,,,,,
2.609570052,I2C,0x01 + NAK,,,,,,,,
2.609645672,I2C,Setup Write to [0x69] + ACK,,,,,,,,
2.609673436,I2C,0x7F + ACK,,,,,,,,
2.609700624,I2C,0x00 + ACK,,,,,,,,
2.609758744,I2C,Setup Write to [0x69] + ACK,,,,,,,,
2.609786444,I2C,0x2D + ACK,,,,,,,,
2.609820384,I2C,Setup Read to [0x69] + ACK,,,,,,,,
2.609847012,I2C,0xFF + ACK,,,,,,,,
2.609874764,I2C,0xA0 + ACK,,,,,,,,
2.609902516,I2C,0xFE + ACK,,,,,,,,
2.609930268,I2C,0x98 + ACK,,,,,,,,
2.609958024,I2C,0x41 + ACK,,,,,,,,
2.609985776,I2C,0x18 + ACK,,,,,,,,
2.610013528,I2C,0x00 + ACK,,,,,,,,
2.610041276,I2C,0xE5 + ACK,,,,,,,,
2.610069032,I2C,0xFF + ACK,,,,,,,,
2.610096784,I2C,0xE9 + ACK,,,,,,,,
2.610124536,I2C,0x00 + ACK,,,,,,,,
2.610152288,I2C,0xF3 + ACK,,,,,,,,
2.61018004,I2C,0x05 + ACK,,,,,,,,
2.610207856,I2C,0x20 + NAK,,,,,,,,
2.61034216,I2C,Setup Write to [0x69] + ACK,,,,,,,,
2.610369928,I2C,0x7F + ACK,,,,,,,,
2.610397116,I2C,0x20 + ACK,,,,,,,,
2.610455236,I2C,Setup Write to [0x69] + ACK,,,,,,,,
2.610483,I2C,0x14 + ACK,,,,,,,,
2.610516936,I2C,Setup Read to [0x69] + ACK,,,,,,,,
2.610543628,I2C,0x38 + NAK,,,,,,,,
2.610619184,I2C,Setup Write to [0x69] + ACK,,,,,,,,
2.610646888,I2C,0x7F + ACK,,,,,,,,
2.610674076,I2C,0x20 + ACK,,,,,,,,
2.610732192,I2C,Setup Write to [0x69] + ACK,,,,,,,,
2.61075996,I2C,0x01 + ACK,,,,,,,,
2.610793896,I2C,Setup Read to [0x69] + ACK,,,,,,,,
2.610820588,I2C,0x38 + NAK,,,,,,,,
2.610886144,I2C,Setup Write to [0x69] + ACK,,,,,,,,
2.610913908,I2C,0x15 + ACK,,,,,,,,
2.610947844,I2C,Setup Read to [0x69] + ACK,,,,,,,,
2.61097454,I2C,0x00 + NAK,,,,,,,,
2.611038908,I2C,Setup Write to [0x0C] + NAK,,,,,,,,
2.611083412,I2C,Setup Read to [0x0C] + NAK,,,,,,,,
2.650115928,I2C,Setup Write to [0x69] + ACK,,,,,,,,
2.650143692,I2C,0x7F + ACK,,,,,,,,
2.650170884,I2C,0x00 + ACK,,,,,,,,
2.650229064,I2C,Setup Write to [0x69] + ACK,,,,,,,,
2.650256828,I2C,0x1A + ACK,,,,,,,,
2.6502907,I2C,Setup Read to [0x69] + ACK,,,,,,,,
2.650317392,I2C,0x01 + NAK,,,,,,,,
2.650393012,I2C,Setup Write to [0x69] + ACK,,,,,,,,
2.65042078,I2C,0x7F + ACK,,,,,,,,
2.650447968,I2C,0x00 + ACK,,,,,,,,
2.650506084,I2C,Setup Write to [0x69] + ACK,,,,,,,,
2.650533788,I2C,0x2D + ACK,,,,,,,,
2.650567724,I2C,Setup Read to [0x69] + ACK,,,,,,,,
2.650594352,I2C,0xFF + ACK,,,,,,,,
2.650622108,I2C,0x78 + ACK,,,,,,,,
2.650649856,I2C,0xFF + ACK,,,,,,,,
2.650677608,I2C,0x80 + ACK,,,,,,,,
2.650705364,I2C,0x40 + ACK,,,,,,,,
2.65073312,I2C,0x40 + ACK,,,,,,,,
2.650760868,I2C,0xFF + ACK,,,,,,,,
2.65078862,I2C,0xE6 + ACK,,,,,,,,
2.650816372,I2C,0xFE + ACK,,,,,,,,
2.650844124,I2C,0xC4 + ACK,,,,,,,,
2.650871876,I2C,0xFF + ACK,,,,,,,,
2.650899628,I2C,0xD3 + ACK,,,,,,,,
2.650927384,I2C,0x04 + ACK,,,,,,,,
2.650955196,I2C,0xD0 + NAK,,,,,,,,
2.651083316,I2C,Setup Write to [0x69] + ACK,,,,,,,,
2.65111108,I2C,0x7F + ACK,,,,,,,,
2.651138272,I2C,0x20 + ACK,,,,,,,,
2.651196388,I2C,Setup Write to [0x69] + ACK,,,,,,,,
2.651224152,I2C,0x14 + ACK,,,,,,,,
2.651257904,I2C,Setup Read to [0x69] + ACK,,,,,,,,
2.651284596,I2C,0x38 + NAK,,,,,,,,
2.651358964,I2C,Setup Write to [0x69] + ACK,,,,,,,,
2.651386728,I2C,0x7F + ACK,,,,,,,,
2.65141392,I2C,0x20 + ACK,,,,,,,,
2.651472036,I2C,Setup Write to [0x69] + ACK,,,,,,,,
2.6514998,I2C,0x01 + ACK,,,,,,,,
2.651533736,I2C,Setup Read to [0x69] + ACK,,,,,,,,
2.651560428,I2C,0x38 + NAK,,,,,,,,
2.651625984,I2C,Setup Write to [0x69] + ACK,,,,,,,,
2.651653748,I2C,0x15 + ACK,,,,,,,,
2.651687688,I2C,Setup Read to [0x69] + ACK,,,,,,,,
2.651714376,I2C,0x00 + NAK,,,,,,,,
2.651778748,I2C,Setup Write to [0x0C] + NAK,,,,,,,,
2.651823256,I2C,Setup Read to [0x0C] + NAK,,,,,,,,
2.690854516,I2C,Setup Write to [0x69] + ACK,,,,,,,,
2.690882284,I2C,0x7F + ACK,,,,,,,,
2.690909472,I2C,0x00 + ACK,,,,,,,,
2.690967652,I2C,Setup Write to [0x69] + ACK,,,,,,,,
2.690995416,I2C,0x1A + ACK,,,,,,,,
2.691029356,I2C,Setup Read to [0x69] + ACK,,,,,,,,
2.691056048,I2C,0x01 + NAK,,,,,,,,
2.691131664,I2C,Setup Write to [0x69] + ACK,,,,,,,,
2.691159432,I2C,0x7F + ACK,,,,,,,,
2.69118662,I2C,0x00 + ACK,,,,,,,,
2.691251052,I2C,Setup Write to [0x69] + ACK,,,,,,,,
2.691278816,I2C,0x2D + ACK,,,,,,,,
2.691312752,I2C,Setup Read to [0x69] + ACK,,,,,,,,
2.69133938,I2C,0xFF + ACK,,,,,,,,
2.691367132,I2C,0x90 + ACK,,,,,,,,
2.691394884,I2C,0xFF + ACK,,,,,,,,
2.69142264,I2C,0xD0 + ACK,,,,,,,,
2.691450396,I2C,0x40 + ACK,,,,,,,,
2.691478148,I2C,0x18 + ACK,,,,,,,,
2.691505896,I2C,0xFF + ACK,,,,,,,,
2.691533652,I2C,0x66 + ACK,,,,,,,,
2.691561404,I2C,0x00 + ACK,,,,,,,,
2.691589156,I2C,0x39 + ACK,,,,,,,,
2.691616904,I2C,0xFF + ACK,,,,,,,,
2.69164466,I2C,0x25 + ACK,,,,,,,,
2.691672412,I2C,0x04 + ACK,,,,,,,,
2.691700224,I2C,0xB0 + NAK,,,,,,,,
2.691828344,I2C,Setup Write to [0x69] + ACK,,,,,,,,
2.691856112,I2C,0x7F + ACK,,,,,,,,
2.6918833,I2C,0x20 + ACK,,,,,,,,
2.691941416,I2C,Setup Write to [0x69] + ACK,,,,,,,,
2.691969184,I2C,0x14 + ACK,,,,,,,,
2.692002932,I2C,Setup Read to [0x69] + ACK,,,,,,,,
2.692029628,I2C,0x38 + NAK,,,,,,,,
2.69210518,I2C,Setup Write to [0x69] + ACK,,,,,,,,
2.692132884,I2C,0x7F + ACK,,,,,,,,
2.692160072,I2C,0x20 + ACK,,,,,,,,
2.692218188,I2C,Setup Write to [0x69] + ACK,,,,,,,,
2.692245956,I2C,0x01 + ACK,,,,,,,,
2.692279704,I2C,Setup Read to [0x69] + ACK,,,,,,,,
2.692306396,I2C,0x38 + NAK,,,,,,,,
2.692371952,I2C,Setup Write to [0x69] + ACK,,,,,,,,
2.692399716,I2C,0x15 + ACK,,,,,,,,
2.692433652,I2C,Setup Read to [0x69] + ACK,,,,,,,,
2.692460348,I2C,0x00 + NAK,,,,,,,,
2.692524716,I2C,Setup Write to [0x0C] + NAK,,,,,,,,
2.69256922,I2C,Setup Read to [0x0C] + NAK,,,,,,,,
2.731597984,I2C,Setup Write to [0x69] + ACK,,,,,,,,
2.731625688,I2C,0x7F + ACK,,,,,,,,
2.731652876,I2C,0x00 + ACK,,,,,,,,
2.731711056,I2C,Setup Write to [0x69] + ACK,,,,,,,,
2.731738824,I2C,0x1A + ACK,,,,,,,,
2.73177276,I2C,Setup Read to [0x69] + ACK,,,,,,,,
2.731799452,I2C,0x01 + NAK,,,,,,,,
2.731875068,I2C,Setup Write to [0x69] + ACK,,,,,,,,
2.731902836,I2C,0x7F + ACK,,,,,,,,
2.731930024,I2C,0x00 + ACK,,,,,,,,
2.73198814,I2C,Setup Write to [0x69] + ACK,,,,,,,,
2.732015844,I2C,0x2D + ACK,,,,,,,,
2.73204978,I2C,Setup Read to [0x69] + ACK,,,,,,,,
2.732076408,I2C,0xFF + ACK,,,,,,,,
2.732104164,I2C,0x98 + ACK,,,,,,,,
2.732131916,I2C,0xFF + ACK,,,,,,,,
2.732159672,I2C,0x28 + ACK,,,,,,,,
2.732187424,I2C,0x41 + ACK,,,,,,,,
2.732215176,I2C,0x68 + ACK,,,,,,,,
2.732242924,I2C,0xFE + ACK,,,,,,,,
2.732270676,I2C,0xBA + ACK,,,,,,,,
2.732298432,I2C,0x00 + ACK,,,,,,,,
2.73232618,I2C,0xAD + ACK,,,,,,,,
2.732353932,I2C,0xFF + ACK,,,,,,,,
2.732381688,I2C,0x41 + ACK,,,,,,,,
2.73240944,I2C,0x05 + ACK,,,,,,,,
2.732437252,I2C,0x20 + NAK,,,,,,,,
2.732565312,I2C,Setup Write to [0x69] + ACK,,,,,,,,
2.732593076,I2C,0x7F + ACK,,,,,,,,
2.732620268,I2C,0x20 + ACK,,,,,,,,
2.732678384,I2C,Setup Write to [0x69] + ACK,,,,,,,,
2.732706148,I2C,0x14 + ACK,,,,,,,,
2.732740084,I2C,Setup Read to [0x69] + ACK,,,,,,,,
2.73276678,I2C,0x38 + NAK,,,,,,,,
2.732842332,I2C,Setup Write to [0x69] + ACK,,,,,,,,
2.732870036,I2C,0x7F + ACK,,,,,,,,
2.732897224,I2C,0x20 + ACK,,,,,,,,
2.732955344,I2C,Setup Write to [0x69] + ACK,,,,,,,,
2.732983108,I2C,0x01 + ACK,,,,,,,,
2.733017044,I2C,Setup Read to [0x69] + ACK,,,,,,,,
2.73304374,I2C,0x38 + NAK,,,,,,,,
2.733109292,I2C,Setup Write to [0x69] + ACK,,,,,,,,
2.73313706,I2C,0x15 + ACK,,,,,,,,
2.733170996,I2C,Setup Read to [0x69] + ACK,,,,,,,,
2.733197688,I2C,0x00 + NAK,,,,,,,,
2.733265616,I2C,Setup Write to [0x0C] + NAK,,,,,,,,
2.733310124,I2C,Setup Read to [0x0C] + NAK,,,,,,,,
2.7723402,I2C,Setup Write to [0x69] + ACK,,,,,,,,
2.772367968,I2C,0x7F + ACK,,,,,,,,
2.772395156,I2C,0x00 + ACK,,,,,,,,
2.772453336,I2C,Setup Write to [0x69] + ACK,,,,,,,,
2.7724811,I2C,0x1A + ACK,,,,,,,,
2.77251504,I2C,Setup Read to [0x69] + ACK,,,,,,,,
2.772541732,I2C,0x01 + NAK,,,,,,,,
2.772617348,I2C,Setup Write to [0x69] + ACK,,,,,,,,
2.772645112,I2C,0x7F + ACK,,,,,,,,
2.7726723,I2C,0x00 + ACK,,,,,,,,
2.77273042,I2C,Setup Write to [0x69] + ACK,,,,,,,,
2.772758124,I2C,0x2D + ACK,,,,,,,,
2.772792056,I2C,Setup Read to [0x69] + ACK,,,,,,,,
2.772818688,I2C,0xFF + ACK,,,,,,,,
2.772846444,I2C,0xB8 + ACK,,,,,,,,
2.772874196,I2C,0xFF + ACK,,,,,,,,
2.772901948,I2C,0xB8 + ACK,,,,,,,,
2.7729297,I2C,0x40 + ACK,,,,,,,,
2.772957448,I2C,0xF0 + ACK,,,,,,,,
2.772985204,I2C,0x00 + ACK,,,,,,,,
2.773012956,I2C,0x5D + ACK,,,,,,,,
2.773040708,I2C,0xFF + ACK,,,,,,,,
2.77306846,I2C,0x4E + ACK,,,,,,,,
2.773096212,I2C,0x01 + ACK,,,,,,,,
2.773123964,I2C,0x00 + ACK,,,,,,,,
2.773151716,I2C,0x04 + ACK,,,,,,,,
2.773179532,I2C,0xE0 + NAK,,,,,,,,
2.773307588,I2C,Setup Write to [0x69] + ACK,,,,,,,,
2.773335356,I2C,0x7F + ACK,,,,,,,,
2.773362544,I2C,0x20 + ACK,,,,,,,,
2.77342066,I2C,Setup Write to [0x69] + ACK,,,,,,,,
2.773448428,I2C,0x14 + ACK,,,,,,,,
2.773482364,I2C,Setup Read to [0x69] + ACK,,,,,,,,
2.773509056,I2C,0x38 + NAK,,,,,,,,
2.773584612,I2C,Setup Write to [0x69] + ACK,,,,,,,,
2.773612316,I2C,0x7F + ACK,,,,,,,,
2.773639504,I2C,0x20 + ACK,,,,,,,,
2.77369762,I2C,Setup Write to [0x69] + ACK,,,,,,,,
2.773725388,I2C,0x01 + ACK,,,,,,,,
2.773759324,I2C,Setup Read to [0x69] + ACK,,,,,,,,
2.773786016,I2C,0x38 + NAK,,,,,,,,
2.773851568,I2C,Setup Write to [0x69] + ACK,,,,,,,,
2.773879336,I2C,0x15 + ACK,,,,,,,,
2.773913272,I2C,Setup Read to [0x69] + ACK,,,,,,,,
2.773939968,I2C,0x00 + NAK,,,,,,,,
2.774004336,I2C,Setup Write to [0x0C] + NAK,,,,,,,,
2.77404884,I2C,Setup Read to [0x0C] + NAK,,,,,,,,
2.813081356,I2C,Setup Write to [0x69] + ACK,,,,,,,,
2.81310912,I2C,0x7F + ACK,,,,,,,,
2.813136312,I2C,0x00 + ACK,,,,,,,,
2.813194488,I2C,Setup Write to [0x69] + ACK,,,,,,,,
2.813222252,I2C,0x1A + ACK,,,,,,,,
2.813256004,I2C,Setup Read to [0x69] + ACK,,,,,,,,
2.813282696,I2C,0x01 + NAK,,,,,,,,
2.813358316,I2C,Setup Write to [0x69] + ACK,,,,,,,,
2.81338608,I2C,0x7F + ACK,,,,,,,,
2.813413268,I2C,0x00 + ACK,,,,,,,,
2.813471384,I2C,Setup Write to [0x69] + ACK,,,,,,,,
2.813499088,I2C,0x2D + ACK,,,,,,,,
2.813533024,I2C,Setup Read to [0x69] + ACK,,,,,,,,
2.813559656,I2C,0xFF + ACK,,,,,,,,
2.813587408,I2C,0xA8 + ACK,,,,,,,,
2.81361516,I2C,0xFF + ACK,,,,,,,,
2.813642916,I2C,0x58 + ACK,,,,,,,,
2.813670668,I2C,0x3F + ACK,,,,,,,,
2.813698416,I2C,0xE0 + ACK,,,,,,,,
2.813726168,I2C,0xFF + ACK,,,,,,,,
2.813753924,I2C,0x5F + ACK,,,,,,,,
2.813781676,I2C,0x00 + ACK,,,,,,,,
2.813809424,I2C,0x07 + ACK,,,,,,,,
2.813837176,I2C,0x00 + ACK,,,,,,,,
2.813864932,I2C,0x49 + ACK,,,,,,,,
2.813892684,I2C,0x04 + ACK,,,,,,,,
2.813920496,I2C,0xF0 + NAK,,,,,,,,
2.814048616,I2C,Setup Write to [0x69] + ACK,,,,,,,,
2.814076384,I2C,0x7F + ACK,,,,,,,,
2.814103572,I2C,0x20 + ACK,,,,,,,,
2.814161816,I2C,Setup Write to [0x69] + ACK,,,,,,,,
2.81418958,I2C,0x14 + ACK,,,,,,,,
2.814223328,I2C,Setup Read to [0x69] + ACK,,,,,,,,
2.81425002,I2C,0x38 + NAK,,,,,,,,
2.81432558,I2C,Setup Write to [0x69] + ACK,,,,,,,,
2.81435328,I2C,0x7F + ACK,,,,,,,,
2.814380472,I2C,0x20 + ACK,,,,,,,,
2.814438588,I2C,Setup Write to [0x69] + ACK,,,,,,,,
2.814466352,I2C,0x01 + ACK,,,,,,,,
2.814500292,I2C,Setup Read to [0x69] + ACK,,,,,,,,
2.814526984,I2C,0x38 + NAK,,,,,,,,
2.814592536,I2C,Setup Write to [0x69] + ACK,,,,,,,,
2.814620304,I2C,0x15 + ACK,,,,,,,,
2.81465424,I2C,Setup Read to [0x69] + ACK,,,,,,,,
2.814680928,I2C,0x00 + NAK,,,,,,,,
2.8147453,I2C,Setup Write to [0x0C] + NAK,,,,,,,,
2.814789808,I2C,Setup Read to [0x0C] + NAK,,,,,,,,
2.853821068,I2C,Setup Write to [0x69] + ACK,,,,,,,,
2.853848836,I2C,0x7F + ACK,,,,,,,,
2.853876024,I2C,0x00 + ACK,,,,,,,,
2.853934204,I2C,Setup Write to [0x69] + ACK,,,,,,,,
2.853961968,I2C,0x1A + ACK,,,,,,,,
2.853995908,I2C,Setup Read to [0x69] + ACK,,,,,,,,
2.8540226,I2C,0x01 + NAK,,,,,,,,
2.85410322,I2C,Setup Write to [0x69] + ACK,,,,,,,,
2.854130984,I2C,0x7F + ACK,,,,,,,,
2.854158172,I2C,0x00 + ACK,,,,,,,,
2.854216352,I2C,Setup Write to [0x69] + ACK,,,,,,,,
2.854244116,I2C,0x2D + ACK,,,,,,,,
2.854278056,I2C,Setup Read to [0x69] + ACK,,,,,,,,
2.854304684,I2C,0xFF + ACK,,,,,,,,
2.854332436,I2C,0xB0 + ACK,,,,,,,,
2.854360188,I2C,0xFF + ACK,,,,,,,,
2.85438794,I2C,0xA8 + ACK,,,,,,,,
2.854415696,I2C,0x40 + ACK,,,,,,,,
2.854443448,I2C,0x78 + ACK,,,,,,,,
2.8544712,I2C,0x00 + ACK,,,,,,,,
2.854498952,I2C,0x57 + ACK,,,,,,,,
2.854526704,I2C,0xFE + ACK,,,,,,,,
2.854554456,I2C,0xFD + ACK,,,,,,,,
2.854582204,I2C,0xFF + ACK,,,,,,,,
2.85460996,I2C,0xE3 + ACK,,,,,,,,
2.854637716,I2C,0x04 + ACK,,,,,,,,
2.854665528,I2C,0xD0 + NAK,,,,,,,,
2.854793648,I2C,Setup Write to [0x69] + ACK,,,,,,,,
2.854821412,I2C,0x7F + ACK,,,,,,,,
2.854848604,I2C,0x20 + ACK,,,,,,,,
2.85490672,I2C,Setup Write to [0x69] + ACK,,,,,,,,
2.854934484,I2C,0x14 + ACK,,,,,,,,
2.854968232,I2C,Setup Read to [0x69] + ACK,,,,,,,,
2.854994924,I2C,0x38 + NAK,,,,,,,,
2.85507048,I2C,Setup Write to [0x69] + ACK,,,,,,,,
2.855098184,I2C,0x7F + ACK,,,,,,,,
2.855125376,I2C,0x20 + ACK,,,,,,,,
2.855183492,I2C,Setup Write to [0x69] + ACK,,,,,,,,
2.855211256,I2C,0x01 + ACK,,,,,,,,
2.855245004,I2C,Setup Read to [0x69] + ACK,,,,,,,,
2.8552717,I2C,0x38 + NAK,,,,,,,,
2.855337252,I2C,Setup Write to [0x69] + ACK,,,,,,,,
2.855365016,I2C,0x15 + ACK,,,,,,,,
2.855398956,I2C,Setup Read to [0x69] + ACK,,,,,,,,
2.855425648,I2C,0x00 + NAK,,,,,,,,
2.855490016,I2C,Setup Write to [0x0C] + NAK,,,,,,,,
2.855534524,I2C,Setup Read to [0x0C] + NAK,,,,,,,,
2.8945671,I2C,Setup Write to [0x69] + ACK,,,,,,,,
2.894594864,I2C,0x7F + ACK,,,,,,,,
2.894622052,I2C,0x00 + ACK,,,,,,,,
2.894680236,I2C,Setup Write to [0x69] + ACK,,,,,,,,
2.894708,I2C,0x1A + ACK,,,,,,,,
2.894741748,I2C,Setup Read to [0x69] + ACK,,,,,,,,
2.89476844,I2C,0x01 + NAK,,,,,,,,
2.89484406,I2C,Setup Write to [0x69] + ACK,,,,,,,,
2.894871824,I2C,0x7F + ACK,,,,,,,,
2.894899012,I2C,0x00 + ACK,,,,,,,,
2.894957132,I2C,Setup Write to [0x69] + ACK,,,,,,,,
2.894984832,I2C,0x2D + ACK,,,,,,,,
2.895018772,I2C,Setup Read to [0x69] + ACK,,,,,,,,
2.895045396,I2C,0xFF + ACK,,,,,,,,
2.895073152,I2C,0xB8 + ACK,,,,,,,,
2.895100904,I2C,0xFE + ACK,,,,,,,,
2.895128656,I2C,0x88 + ACK,,,,,,,,
2.895156412,I2C,0x40 + ACK,,,,,,,,
2.89518416,I2C,0xF8 + ACK,,,,,,,,
2.895211912,I2C,0xFE + ACK,,,,,,,,
2.895239668,I2C,0x4C + ACK,,,,,,,,
2.895267424,I2C,0x00 + ACK,,,,,,,,
2.895295172,I2C,0xC5 + ACK,,,,,,,,
2.895322924,I2C,0xFE + ACK,,,,,,,,
2.895350676,I2C,0xFB + ACK,,,,,,,,
2.895378432,I2C,0x04 + ACK,,,,,,,,
2.89540624,I2C,0xB0 + NAK,,,,,,,,
2.8955343,I2C,Setup Write to [0x69] + ACK,,,,,,,,
2.895562064,I2C,0x7F + ACK,,,,,,,,
2.895589252,I2C,0x20 + ACK,,,,,,,,
2.895647372,I2C,Setup Write to [0x69] + ACK,,,,,,,,
2.895675136,I2C,0x14 + ACK,,,,,,,,
2.895709076,I2C,Setup Read to [0x69] + ACK,,,,,,,,
2.895735768,I2C,0x38 + NAK,,,,,,,,
2.89581132,I2C,Setup Write to [0x69] + ACK,,,,,,,,
2.895839028,I2C,0x7F + ACK,,,,,,,,
2.895866216,I2C,0x20 + ACK,,,,,,,,
2.895924332,I2C,Setup Write to [0x69] + ACK,,,,,,,,
2.895952096,I2C,0x01 + ACK,,,,,,,,
2.895986032,I2C,Setup Read to [0x69] + ACK,,,,,,,,
2.896012728,I2C,0x38 + NAK,,,,,,,,
2.896084532,I2C,Setup Write to [0x69] + ACK,,,,,,,,
2.896112296,I2C,0x15 + ACK,,,,,,,,
2.896146044,I2C,Setup Read to [0x69] + ACK,,,,,,,,
2.89617274,I2C,0x00 + NAK,,,,,,,,
2.896237108,I2C,Setup Write to [0x0C] + NAK,,,,,,,,
2.896281616,I2C,Setup Read to [0x0C] + NAK,,,,,,,,
2.93531788,I2C,Setup Write to [0x69] + ACK,,,,,,,,
2.935345644,I2C,0x7F + ACK,,,,,,,,
2.935372836,I2C,0x00 + ACK,,,,,,,,
2.935431012,I2C,Setup Write to [0x69] + ACK,,,,,,,,
2.93545878,I2C,0x1A + ACK,,,,,,,,
2.935492528,I2C,Setup Read to [0x69] + ACK,,,,,,,,
2.93551922,I2C,0x01 + NAK,,,,,,,,
2.93559484,I2C,Setup Write to [0x69] + ACK,,,,,,,,
2.935622604,I2C,0x7F + ACK,,,,,,,,
2.935649792,I2C,0x00 + ACK,,,,,,,,
2.935707912,I2C,Setup Write to [0x69] + ACK,,,,,,,,
2.935735612,I2C,0x2D + ACK,,,,,,,,
2.935769548,I2C,Setup Read to [0x69] + ACK,,,,,,,,
2.935796176,I2C,0xFF + ACK,,,,,,,,
2.935823932,I2C,0xE0 + ACK,,,,,,,,
2.935851684,I2C,0xFF + ACK,,,,,,,,
2.935879436,I2C,0xF0 + ACK,,,,,,,,
2.935907192,I2C,0x40 + ACK,,,,,,,,
2.93593494,I2C,0xB0 + ACK,,,,,,,,
2.935962692,I2C,0xFE + ACK,,,,,,,,
2.935990444,I2C,0xEE + ACK,,,,,,,,
2.9360182,I2C,0x01 + ACK,,,,,,,,
2.936045952,I2C,0x2D + ACK,,,,,,,,
2.9360737,I2C,0xFF + ACK,,,,,,,,
2.936101456,I2C,0x1A + ACK,,,,,,,,
2.936129208,I2C,0x04 + ACK,,,,,,,,
2.93615702,I2C,0xF0 + NAK,,,,,,,,
2.93628508,I2C,Setup Write to [0x69] + ACK,,,,,,,,
2.936312848,I2C,0x7F + ACK,,,,,,,,
2.936340036,I2C,0x20 + ACK,,,,,,,,
2.936398152,I2C,Setup Write to [0x69] + ACK,,,,,,,,
2.93642592,I2C,0x14 + ACK,,,,,,,,
2.936459856,I2C,Setup Read to [0x69] + ACK,,,,,,,,
2.936486548,I2C,0x38 + NAK,,,,,,,,
2.9365621,I2C,Setup Write to [0x69] + ACK,,,,,,,,
2.936589804,I2C,0x7F + ACK,,,,,,,,
2.936616996,I2C,0x20 + ACK,,,,,,,,
2.936675112,I2C,Setup Write to [0x69] + ACK,,,,,,,,
2.936702876,I2C,0x01 + ACK,,,,,,,,
2.936736812,I2C,Setup Read to [0x69] + ACK,,,,,,,,
2.936763504,I2C,0x38 + NAK,,,,,,,,
2.93682906,I2C,Setup Write to [0x69] + ACK,,,,,,,,
2.936856828,I2C,0x15 + ACK,,,,,,,,
2.936890764,I2C,Setup Read to [0x69] + ACK,,,,,,,,
2.93691746,I2C,0x00 + NAK,,,,,,,,
2.936981824,I2C,Setup Write to [0x0C] + NAK,,,,,,,,
2.937032644,I2C,Setup Read to [0x0C] + NAK,,,,,,,,
2.976063972,I2C,Setup Write to [0x69] + ACK,,,,,,,,
2.976091736,I2C,0x7F + ACK,,,,,,,,
2.976118924,I2C,0x00 + ACK,,,,,,,,
2.976177104,I2C,Setup Write to [0x69] + ACK,,,,,,,,
2.976204868,I2C,0x1A + ACK,,,,,,,,
2.976238808,I2C,Setup Read to [0x69] + ACK,,,,,,,,
2.9762655,I2C,0x01 + NAK,,,,,,,,
2.976341116,I2C,Setup Write to [0x69] + ACK,,,,,,,,
2.976368884,I2C,0x7F + ACK,,,,,,,,
2.976396072,I2C,0x00 + ACK,,,,,,,,
2.976454188,I2C,Setup Write to [0x69] + ACK,,,,,,,,
2.976481892,I2C,0x2D + ACK,,,,,,,,
2.976515828,I2C,Setup Read to [0x69] + ACK,,,,,,,,
2.976542456,I2C,0xFF + ACK,,,,,,,,
2.976570212,I2C,0x38 + ACK,,,,,,,,
2.976597964,I2C,0xFF + ACK,,,,,,,,
2.97662572,I2C,0x20 + ACK,,,,,,,,
2.976653472,I2C,0x41 + ACK,,,,,,,,
2.976681224,I2C,0x30 + ACK,,,,,,,,
2.976708972,I2C,0xFF + ACK,,,,,,,,
2.976736724,I2C,0x8E + ACK,,,,,,,,
2.976764476,I2C,0xFF + ACK,,,,,,,,
2.976792228,I2C,0xA3 + ACK,,,,,,,,
2.97681998,I2C,0xFF + ACK,,,,,,,,
2.976847736,I2C,0x65 + ACK,,,,,,,,
2.976875488,I2C,0x04 + ACK,,,,,,,,
2.9769033,I2C,0xB0 + NAK,,,,,,,,
2.977037608,I2C,Setup Write to [0x69] + ACK,,,,,,,,
2.977065376,I2C,0x7F + ACK,,,,,,,,
2.977092564,I2C,0x20 + ACK,,,,,,,,
2.97715068,I2C,Setup Write to [0x69] + ACK,,,,,,,,
2.977178444,I2C,0x14 + ACK,,,,,,,,
2.977212384,I2C,Setup Read to [0x69] + ACK,,,,,,,,
2.977239076,I2C,0x38 + NAK,,,,,,,,
2.977314632,I2C,Setup Write to [0x69] + ACK,,,,,,,,
2.977342332,I2C,0x7F + ACK,,,,,,,,
2.977369524,I2C,0x20 + ACK,,,,,,,,
2.97742764,I2C,Setup Write to [0x69] + ACK,,,,,,,,
2.977455408,I2C,0x01 + ACK,,,,,,,,
2.977489344,I2C,Setup Read to [0x69] + ACK,,,,,,,,
2.977516036,I2C,0x38 + NAK,,,,,,,,
2.977581588,I2C,Setup Write to [0x69] + ACK,,,,,,,,
2.977609356,I2C,0x15 + ACK,,,,,,,,
2.977643292,I2C,Setup Read to [0x69] + ACK,,,,,,,,
2.977669988,I2C,0x00 + NAK,,,,,,,,
2.977734352,I2C,Setup Write to [0x0C] + NAK,,,,,,,,
2.977778864,I2C,Setup Read to [0x0C] + NAK,,,,,,,,
3.016807624,I2C,Setup Write to [0x69] + ACK,,,,,,,,
3.016835392,I2C,0x7F + ACK,,,,,,,,
3.01686258,I2C,0x00 + ACK,,,,,,,,
3.016927008,I2C,Setup Write to [0x69] + ACK,,,,,,,,
3.016954772,I2C,0x1A + ACK,,,,,,,,
3.016988524,I2C,Setup Read to [0x69] + ACK,,,,,,,,
3.017015216,I2C,0x01 + NAK,,,,,,,,
3.017090832,I2C,Setup Write to [0x69] + ACK,,,,,,,,
3.0171186,I2C,0x7F + ACK,,,,,,,,
3.017145788,I2C,0x00 + ACK,,,,,,,,
3.017203904,I2C,Setup Write to [0x69] + ACK,,,,,,,,
3.017231608,I2C,0x2D + ACK,,,,,,,,
3.017265544,I2C,Setup Read to [0x69] + ACK,,,,,,,,
3.017292176,I2C,0x00 + ACK,,,,,,,,
3.017319932,I2C,0x28 + ACK,,,,,,,,
3.01734768,I2C,0xFF + ACK,,,,,,,,
3.017375436,I2C,0x20 + ACK,,,,,,,,
3.017403188,I2C,0x40 + ACK,,,,,,,,
3.017430936,I2C,0xC8 + ACK,,,,,,,,
3.017458688,I2C,0xFF + ACK,,,,,,,,
3.01748644,I2C,0xDC + ACK,,,,,,,,
3.017514192,I2C,0xFF + ACK,,,,,,,,
3.017541948,I2C,0x4E + ACK,,,,,,,,
3.017569696,I2C,0x00 + ACK,,,,,,,,
3.017597448,I2C,0x46 + ACK,,,,,,,,
3.017625204,I2C,0x04 + ACK,,,,,,,,
3.017653016,I2C,0xD0 + NAK,,,,,,,,
3.017781136,I2C,Setup Write to [0x69] + ACK,,,,,,,,
3.017808904,I2C,0x7F + ACK,,,,,,,,
3.017836092,I2C,0x20 + ACK,,,,,,,,
3.017894208,I2C,Setup Write to [0x69] + ACK,,,,,,,,
3.01792354,I2C,0x14 + ACK,,,,,,,,
3.017957412,I2C,Setup Read to [0x69] + ACK,,,,,,,,
3.017984104,I2C,0x38 + NAK,,,,,,,,
3.01805966,I2C,Setup Write to [0x69] + ACK,,,,,,,,
3.018087364,I2C,0x7F + ACK,,,,,,,,
3.018114552,I2C,0x20 + ACK,,,,,,,,
3.018172668,I2C,Setup Write to [0x69] + ACK,,,,,,,,
3.018200436,I2C,0x01 + ACK,,,,,,,,
3.018234372,I2C,Setup Read to [0x69] + ACK,,,,,,,,
3.018261064,I2C,0x38 + NAK,,,,,,,,
3.018326616,I2C,Setup Write to [0x69] + ACK,,,,,,,,
3.018354384,I2C,0x15 + ACK,,,,,,,,
3.01838832,I2C,Setup Read to [0x69] + ACK,,,,,,,,
3.018415016,I2C,0x00 + NAK,,,,,,,,
3.018479384,I2C,Setup Write to [0x0C] + NAK,,,,,,,,
3.018523888,I2C,Setup Read to [0x0C] + NAK,,,,,,,,
3.057555212,I2C,Setup Write to [0x69] + ACK,,,,,,,,
3.057582984,I2C,0x7F + ACK,,,,,,,,
3.057610172,I2C,0x00 + ACK,,,,,,,,
3.057668348,I2C,Setup Write to [0x69] + ACK,,,,,,,,
3.057696116,I2C,0x1A + ACK,,,,,,,,
3.057730052,I2C,Setup Read to [0x69] + ACK,,,,,,,,
3.057756744,I2C,0x01 + NAK,,,,,,,,
3.057832364,I2C,Setup Write to [0x69] + ACK,,,,,,,,
3.057862756,I2C,0x7F + ACK,,,,,,,,
3.05788994,I2C,0x00 + ACK,,,,,,,,
3.05794806,I2C,Setup Write to [0x69] + ACK,,,,,,,,
3.057975764,I2C,0x2D + ACK,,,,,,,,
3.0580097,I2C,Setup Read to [0x69] + ACK,,,,,,,,
3.058036328,I2C,0xFF + ACK,,,,,,,,
3.058064084,I2C,0x28 + ACK,,,,,,,,
3.058091832,I2C,0xFF + ACK,,,,,,,,
3.058119588,I2C,0x78 + ACK,,,,,,,,
3.05814734,I2C,0x40 + ACK,,,,,,,,
3.058175092,I2C,0x00 + ACK,,,,,,,,
3.058202844,I2C,0x01 + ACK,,,,,,,,
3.058230596,I2C,0x08 + ACK,,,,,,,,
3.058258348,I2C,0x00 + ACK,,,,,,,,
3.0582861,I2C,0x15 + ACK,,,,,,,,
3.058313856,I2C,0x00 + ACK,,,,,,,,
3.058341604,I2C,0xBC + ACK,,,,,,,,
3.05836936,I2C,0x04 + ACK,,,,,,,,
3.058397172,I2C,0xB0 + NAK,,,,,,,,
3.058525292,I2C,Setup Write to [0x69] + ACK,,,,,,,,
3.058553056,I2C,0x7F + ACK,,,,,,,,
3.058580248,I2C,0x20 + ACK,,,,,,,,
3.058638364,I2C,Setup Write to [0x69] + ACK,,,,,,,,
3.058666128,I2C,0x14 + ACK,,,,,,,,
3.058699876,I2C,Setup Read to [0x69] + ACK,,,,,,,,
3.058726572,I2C,0x38 + NAK,,,,,,,,
3.058802128,I2C,Setup Write to [0x69] + ACK,,,,,,,,
3.058829828,I2C,0x7F + ACK,,,,,,,,
3.05885702,I2C,0x20 + ACK,,,,,,,,
3.058917136,I2C,Setup Write to [0x69] + ACK,,,,,,,,
3.0589449,I2C,0x01 + ACK,,,,,,,,
3.05897884,I2C,Setup Read to [0x69] + ACK,,,,,,,,
3.059005532,I2C,0x38 + NAK,,,,,,,,
3.059071084,I2C,Setup Write to [0x69] + ACK,,,,,,,,
3.059098848,I2C,0x15 + ACK,,,,,,,,
3.059132784,I2C,Setup Read to [0x69] + ACK,,,,,,,,
3.05915948,I2C,0x00 + NAK,,,,,,,,
3.059223848,I2C,Setup Write to [0x0C] + NAK,,,,,,,,
3.059268356,I2C,Setup Read to [0x0C] + NAK,,,,,,,,
3.098384624,I2C,Setup Write to [0x69] + ACK,,,,,,,,
3.098412392,I2C,0x7F + ACK,,,,,,,,
3.09843958,I2C,0x00 + ACK,,,,,,,,
3.098497764,I2C,Setup Write to [0x69] + ACK,,,,,,,,
3.098525524,I2C,0x1A + ACK,,,,,,,,
3.09855946,I2C,Setup Read to [0x69] + ACK,,,,,,,,
3.098586156,I2C,0x01 + NAK,,,,,,,,
3.098661772,I2C,Setup Write to [0x69] + ACK,,,,,,,,
3.098689536,I2C,0x7F + ACK,,,,,,,,
3.098716728,I2C,0x00 + ACK,,,,,,,,
3.098774844,I2C,Setup Write to [0x69] + ACK,,,,,,,,
3.098802544,I2C,0x2D + ACK,,,,,,,,
3.098836296,I2C,Setup Read to [0x69] + ACK,,,,,,,,
3.098862924,I2C,0xFF + ACK,,,,,,,,
3.09889068,I2C,0x68 + ACK,,,,,,,,
3.098918428,I2C,0xFF + ACK,,,,,,,,
3.098946184,I2C,0x90 + ACK,,,,,,,,
3.098973936,I2C,0x40 + ACK,,,,,,,,
3.099001692,I2C,0x10 + ACK,,,,,,,,
3.09902944,I2C,0x00 + ACK,,,,,,,,
3.099057196,I2C,0x14 + ACK,,,,,,,,
3.099084948,I2C,0x00 + ACK,,,,,,,,
3.099112696,I2C,0x99 + ACK,,,,,,,,
3.099140452,I2C,0x00 + ACK,,,,,,,,
3.099168204,I2C,0x73 + ACK,,,,,,,,
3.099195956,I2C,0x05 + ACK,,,,,,,,
3.099223768,I2C,0x10 + NAK,,,,,,,,
3.099351892,I2C,Setup Write to [0x69] + ACK,,,,,,,,
3.099379656,I2C,0x7F + ACK,,,,,,,,
3.099406844,I2C,0x20 + ACK,,,,,,,,
3.099464964,I2C,Setup Write to [0x69] + ACK,,,,,,,,
3.099492724,I2C,0x14 + ACK,,,,,,,,
3.099526476,I2C,Setup Read to [0x69] + ACK,,,,,,,,
3.099553172,I2C,0x38 + NAK,,,,,,,,
3.099628724,I2C,Setup Write to [0x69] + ACK,,,,,,,,
3.099656428,I2C,0x7F + ACK,,,,,,,,
3.099683616,I2C,0x20 + ACK,,,,,,,,
3.099741732,I2C,Setup Write to [0x69] + ACK,,,,,,,,
3.0997695,I2C,0x01 + ACK,,,,,,,,
3.099803436,I2C,Setup Read to [0x69] + ACK,,,,,,,,
3.099830128,I2C,0x38 + NAK,,,,,,,,
3.099895684,I2C,Setup Write to [0x69] + ACK,,,,,,,,
3.099923448,I2C,0x15 + ACK,,,,,,,,
3.099957196,I2C,Setup Read to [0x69] + ACK,,,,,,,,
3.099983892,I2C,0x00 + NAK,,,,,,,,
3.10004826,I2C,Setup Write to [0x0C] + NAK,,,,,,,,
3.100092768,I2C,Setup Read to [0x0C] + NAK,,,,,,,,
3.139124028,I2C,Setup Write to [0x69] + ACK,,,,,,,,
3.139151796,I2C,0x7F + ACK,,,,,,,,
3.139178984,I2C,0x00 + ACK,,,,,,,,
3.139237164,I2C,Setup Write to [0x69] + ACK,,,,,,,,
3.139264928,I2C,0x1A + ACK,,,,,,,,
3.139298864,I2C,Setup Read to [0x69] + ACK,,,,,,,,
3.13932556,I2C,0x01 + NAK,,,,,,,,
3.139401172,I2C,Setup Write to [0x69] + ACK,,,,,,,,
3.139428944,I2C,0x7F + ACK,,,,,,,,
3.139456128,I2C,0x00 + ACK,,,,,,,,
3.139514248,I2C,Setup Write to [0x69] + ACK,,,,,,,,
3.139541948,I2C,0x2D + ACK,,,,,,,,
3.139575888,I2C,Setup Read to [0x69] + ACK,,,,,,,,
3.139602516,I2C,0xFE + ACK,,,,,,,,
3.139630272,I2C,0xF8 + ACK,,,,,,,,
3.139658024,I2C,0xFE + ACK,,,,,,,,
3.139685776,I2C,0xE0 + ACK,,,,,,,,
3.139713528,I2C,0x41 + ACK,,,,,,,,
3.139741284,I2C,0x08 + ACK,,,,,,,,
3.139769032,I2C,0xFF + ACK,,,,,,,,
3.139796784,I2C,0xA4 + ACK,,,,,,,,
3.139824536,I2C,0xFF + ACK,,,,,,,,
3.139852288,I2C,0xA1 + ACK,,,,,,,,
3.13988004,I2C,0xFF + ACK,,,,,,,,
3.139907792,I2C,0xAD + ACK,,,,,,,,
3.139935548,I2C,0x05 + ACK,,,,,,,,
3.13996336,I2C,0x10 + NAK,,,,,,,,
3.140091416,I2C,Setup Write to [0x69] + ACK,,,,,,,,
3.140119184,I2C,0x7F + ACK,,,,,,,,
3.140146372,I2C,0x20 + ACK,,,,,,,,
3.140204488,I2C,Setup Write to [0x69] + ACK,,,,,,,,
3.140232256,I2C,0x14 + ACK,,,,,,,,
3.140266192,I2C,Setup Read to [0x69] + ACK,,,,,,,,
3.140292884,I2C,0x38 + NAK,,,,,,,,
3.14036844,I2C,Setup Write to [0x69] + ACK,,,,,,,,
3.140396144,I2C,0x7F + ACK,,,,,,,,
3.140423332,I2C,0x20 + ACK,,,,,,,,
3.140481452,I2C,Setup Write to [0x69] + ACK,,,,,,,,
3.140509212,I2C,0x01 + ACK,,,,,,,,
3.140543152,I2C,Setup Read to [0x69] + ACK,,,,,,,,
3.140569844,I2C,0x38 + NAK,,,,,,,,
3.1406354,I2C,Setup Write to [0x69] + ACK,,,,,,,,
3.140663164,I2C,0x15 + ACK,,,,,,,,
3.1406971,I2C,Setup Read to [0x69] + ACK,,,,,,,,
3.140723796,I2C,0x00 + NAK,,,,,,,,
3.14078816,I2C,Setup Write to [0x0C] + NAK,,,,,,,,
3.140832732,I2C,Setup Read to [0x0C] + NAK,,,,,,,,
3.179864056,I2C,Setup Write to [0x69] + ACK,,,,,,,,
3.179891824,I2C,0x7F + ACK,,,,,,,,
3.179919012,I2C,0x00 + ACK,,,,,,,,
3.179977192,I2C,Setup Write to [0x69] + ACK,,,,,,,,
3.180004956,I2C,0x1A + ACK,,,,,,,,
3.180038892,I2C,Setup Read to [0x69] + ACK,,,,,,,,
3.180065588,I2C,0x01 + NAK,,,,,,,,
3.180141204,I2C,Setup Write to [0x69] + ACK,,,,,,,,
3.180168968,I2C,0x7F + ACK,,,,,,,,
3.18019616,I2C,0x00 + ACK,,,,,,,,
3.180254276,I2C,Setup Write to [0x69] + ACK,,,,,,,,
3.180281976,I2C,0x2D + ACK,,,,,,,,
3.180315912,I2C,Setup Read to [0x69] + ACK,,,,,,,,
3.180342544,I2C,0x00 + ACK,,,,,,,,
3.1803703,I2C,0x50 + ACK,,,,,,,,
3.180398052,I2C,0xFF + ACK,,,,,,,,
3.180425804,I2C,0x78 + ACK,,,,,,,,
3.180453556,I2C,0x41 + ACK,,,,,,,,
3.180481308,I2C,0x58 + ACK,,,,,,,,
3.18050906,I2C,0xFF + ACK,,,,,,,,
3.180536812,I2C,0x49 + ACK,,,,,,,,
3.180564564,I2C,0x00 + ACK,,,,,,,,
3.180592316,I2C,0x52 + ACK,,,,,,,,
3.180620068,I2C,0xFF + ACK,,,,,,,,
3.18064782,I2C,0x8C + ACK,,,,,,,,
3.180675576,I2C,0x04 + ACK,,,,,,,,
3.180703384,I2C,0x80 + NAK,,,,,,,,
3.180837696,I2C,Setup Write to [0x69] + ACK,,,,,,,,
3.180865464,I2C,0x7F + ACK,,,,,,,,
3.180892652,I2C,0x20 + ACK,,,,,,,,
3.180950768,I2C,Setup Write to [0x69] + ACK,,,,,,,,
3.180978532,I2C,0x14 + ACK,,,,,,,,
3.181012468,I2C,Setup Read to [0x69] + ACK,,,,,,,,
3.181039164,I2C,0x38 + NAK,,,,,,,,
3.18111472,I2C,Setup Write to [0x69] + ACK,,,,,,,,
3.18114242,I2C,0x7F + ACK,,,,,,,,
3.181169612,I2C,0x20 + ACK,,,,,,,,
3.181227728,I2C,Setup Write to [0x69] + ACK,,,,,,,,
3.181255492,I2C,0x01 + ACK,,,,,,,,
3.181289432,I2C,Setup Read to [0x69] + ACK,,,,,,,,
3.181316124,I2C,0x38 + NAK,,,,,,,,
3.181381676,I2C,Setup Write to [0x69] + ACK,,,,,,,,
3.181409444,I2C,0x15 + ACK,,,,,,,,
3.18144338,I2C,Setup Read to [0x69] + ACK,,,,,,,,
3.181470072,I2C,0x00 + NAK,,,,,,,,
3.18153444,I2C,Setup Write to [0x0C] + NAK,,,,,,,,
3.181578948,I2C,Setup Read to [0x0C] + NAK,,,,,,,,
3.22061146,I2C,Setup Write to [0x69] + ACK,,,,,,,,
3.220639164,I2C,0x7F + ACK,,,,,,,,
3.220666356,I2C,0x00 + ACK,,,,,,,,
3.220724532,I2C,Setup Write to [0x69] + ACK,,,,,,,,
3.220752296,I2C,0x1A + ACK,,,,,,,,
3.220786048,I2C,Setup Read to [0x69] + ACK,,,,,,,,
3.22081274,I2C,0x01 + NAK,,,,,,,,
3.22088836,I2C,Setup Write to [0x69] + ACK,,,,,,,,
3.220916124,I2C,0x7F + ACK,,,,,,,,
3.220943312,I2C,0x00 + ACK,,,,,,,,
3.221001432,I2C,Setup Write to [0x69] + ACK,,,,,,,,
3.221029132,I2C,0x2D + ACK,,,,,,,,
3.221063068,I2C,Setup Read to [0x69] + ACK,,,,,,,,
3.2210897,I2C,0xFF + ACK,,,,,,,,
3.221117456,I2C,0x58 + ACK,,,,,,,,
3.221145208,I2C,0x00 + ACK,,,,,,,,
3.221172956,I2C,0xA8 + ACK,,,,,,,,
3.221200712,I2C,0x40 + ACK,,,,,,,,
3.221228464,I2C,0x18 + ACK,,,,,,,,
3.221256212,I2C,0xFE + ACK,,,,,,,,
3.221283968,I2C,0x56 + ACK,,,,,,,,
3.22131172,I2C,0x00 + ACK,,,,,,,,
3.221339468,I2C,0xD1 + ACK,,,,,,,,
3.22136722,I2C,0xFD + ACK,,,,,,,,
3.221394972,I2C,0xDF + ACK,,,,,,,,
3.221422728,I2C,0x04 + ACK,,,,,,,,
3.221450544,I2C,0xF0 + NAK,,,,,,,,
3.22157866,I2C,Setup Write to [0x69] + ACK,,,,,,,,
3.221606428,I2C,0x7F + ACK,,,,,,,,
3.221633616,I2C,0x20 + ACK,,,,,,,,
3.221691736,I2C,Setup Write to [0x69] + ACK,,,,,,,,
3.221719436,I2C,0x14 + ACK,,,,,,,,
3.221753372,I2C,Setup Read to [0x69] + ACK,,,,,,,,
3.221780068,I2C,0x38 + NAK,,,,,,,,
3.221855624,I2C,Setup Write to [0x69] + ACK,,,,,,,,
3.221883324,I2C,0x7F + ACK,,,,,,,,
3.221910516,I2C,0x20 + ACK,,,,,,,,
3.221968632,I2C,Setup Write to [0x69] + ACK,,,,,,,,
3.221996396,I2C,0x01 + ACK,,,,,,,,
3.222030332,I2C,Setup Read to [0x69] + ACK,,,,,,,,
3.222057028,I2C,0x38 + NAK,,,,,,,,
3.22212258,I2C,Setup Write to [0x69] + ACK,,,,,,,,
3.222150344,I2C,0x15 + ACK,,,,,,,,
3.222184284,I2C,Setup Read to [0x69] + ACK,,,,,,,,
3.222210976,I2C,0x00 + NAK,,,,,,,,
3.222275344,I2C,Setup Write to [0x0C] + NAK,,,,,,,,
3.222319852,I2C,Setup Read to [0x0C] + NAK,,,,,,,,
3.261352424,I2C,Setup Write to [0x69] + ACK,,,,,,,,
3.261380192,I2C,0x7F + ACK,,,,,,,,
3.26140738,I2C,0x00 + ACK,,,,,,,,
3.26146556,I2C,Setup Write to [0x69] + ACK,,,,,,,,
3.261493328,I2C,0x1A + ACK,,,,,,,,
3.261527264,I2C,Setup Read to [0x69] + ACK,,,,,,,,
3.261553956,I2C,0x01 + NAK,,,,,,,,
3.261629576,I2C,Setup Write to [0x69] + ACK,,,,,,,,
3.26165734,I2C,0x7F + ACK,,,,,,,,
3.261684528,I2C,0x00 + ACK,,,,,,,,
3.261742708,I2C,Setup Write to [0x69] + ACK,,,,,,,,
3.261770472,I2C,0x2D + ACK,,,,,,,,
3.261804412,I2C,Setup Read to [0x69] + ACK,,,,,,,,
3.261831044,I2C,0x00 + ACK,,,,,,,,
3.261858796,I2C,0x48 + ACK,,,,,,,,
3.261886544,I2C,0xFF + ACK,,,,,,,,
3.261914296,I2C,0x80 + ACK,,,,,,,,
3.261942052,I2C,0x40 + ACK,,,,,,,,
3.261969804,I2C,0x40 + ACK,,,,,,,,
3.261997552,I2C,0xFF + ACK,,,,,,,,
3.262025304,I2C,0xCA + ACK,,,,,,,,
3.262053056,I2C,0xFE + ACK,,,,,,,,
3.262080808,I2C,0xFA + ACK,,,,,,,,
3.262108564,I2C,0xFE + ACK,,,,,,,,
3.262136316,I2C,0x98 + ACK,,,,,,,,
3.262164068,I2C,0x04 + ACK,,,,,,,,
3.262191888,I2C,0x70 + NAK,,,,,,,,
3.26232,I2C,Setup Write to [0x69] + ACK,,,,,,,,
3.262347768,I2C,0x7F + ACK,,,,,,,,
3.262374956,I2C,0x20 + ACK,,,,,,,,
3.262433076,I2C,Setup Write to [0x69] + ACK,,,,,,,,
3.26246084,I2C,0x14 + ACK,,,,,,,,
3.262494588,I2C,Setup Read to [0x69] + ACK,,,,,,,,
3.26252128,I2C,0x38 + NAK,,,,,,,,
3.262596836,I2C,Setup Write to [0x69] + ACK,,,,,,,,
3.26262454,I2C,0x7F + ACK,,,,,,,,
3.262651732,I2C,0x20 + ACK,,,,,,,,
3.262709848,I2C,Setup Write to [0x69] + ACK,,,,,,,,
3.262737612,I2C,0x01 + ACK,,,,,,,,
3.26277136,I2C,Setup Read to [0x69] + ACK,,,,,,,,
3.262798052,I2C,0x38 + NAK,,,,,,,,
3.262863608,I2C,Setup Write to [0x69] + ACK,,,,,,,,
3.262891376,I2C,0x15 + ACK,,,,,,,,
3.262925312,I2C,Setup Read to [0x69] + ACK,,,,,,,,
3.262952004,I2C,0x00 + NAK,,,,,,,,
3.263016372,I2C,Setup Write to [0x0C] + NAK,,,,,,,,
3.26306088,I2C,Setup Read to [0x0C] + NAK,,,,,,,,
3.302090892,I2C,Setup Write to [0x69] + ACK,,,,,,,,
3.302118596,I2C,0x7F + ACK,,,,,,,,
3.302145784,I2C,0x00 + ACK,,,,,,,,
3.302203964,I2C,Setup Write to [0x69] + ACK,,,,,,,,
3.302231728,I2C,0x1A + ACK,,,,,,,,
3.302265664,I2C,Setup Read to [0x69] + ACK,,,,,,,,
3.302292356,I2C,0x01 + NAK,,,,,,,,
3.302367976,I2C,Setup Write to [0x69] + ACK,,,,,,,,
3.302395744,I2C,0x7F + ACK,,,,,,,,
3.302422932,I2C,0x00 + ACK,,,,,,,,
3.302481048,I2C,Setup Write to [0x69] + ACK,,,,,,,,
3.302508752,I2C,0x2D + ACK,,,,,,,,
3.302542688,I2C,Setup Read to [0x69] + ACK,,,,,,,,
3.302569316,I2C,0xFF + ACK,,,,,,,,
3.302597068,I2C,0xA0 + ACK,,,,,,,,
3.302624824,I2C,0xFF + ACK,,,,,,,,
3.302652576,I2C,0x98 + ACK,,,,,,,,
3.302680328,I2C,0x40 + ACK,,,,,,,,
3.30270808,I2C,0x58 + ACK,,,,,,,,
3.302735832,I2C,0xFF + ACK,,,,,,,,
3.302763584,I2C,0xD7 + ACK,,,,,,,,
3.302791336,I2C,0xFF + ACK,,,,,,,,
3.302819088,I2C,0xD3 + ACK,,,,,,,,
3.302846844,I2C,0x00 + ACK,,,,,,,,
3.302874596,I2C,0x59 + ACK,,,,,,,,
3.302902348,I2C,0x04 + ACK,,,,,,,,
3.30293016,I2C,0xF0 + NAK,,,,,,,,
3.30305822,I2C,Setup Write to [0x69] + ACK,,,,,,,,
3.303085984,I2C,0x7F + ACK,,,,,,,,
3.303113176,I2C,0x20 + ACK,,,,,,,,
3.303171292,I2C,Setup Write to [0x69] + ACK,,,,,,,,
3.303199056,I2C,0x14 + ACK,,,,,,,,
3.303232992,I2C,Setup Read to [0x69] + ACK,,,,,,,,
3.303259688,I2C,0x38 + NAK,,,,,,,,
3.30333524,I2C,Setup Write to [0x69] + ACK,,,,,,,,
3.303362944,I2C,0x7F + ACK,,,,,,,,
3.303390132,I2C,0x20 + ACK,,,,,,,,
3.303448252,I2C,Setup Write to [0x69] + ACK,,,,,,,,
3.303476016,I2C,0x01 + ACK,,,,,,,,
3.303509952,I2C,Setup Read to [0x69] + ACK,,,,,,,,
3.303536644,I2C,0x38 + NAK,,,,,,,,
3.3036022,I2C,Setup Write to [0x69] + ACK,,,,,,,,
3.303629964,I2C,0x15 + ACK,,,,,,,,
3.303663716,I2C,Setup Read to [0x69] + ACK,,,,,,,,
3.303690408,I2C,0x00 + NAK,,,,,,,,
3.303754776,I2C,Setup Write to [0x0C] + NAK,,,,,,,,
3.303799284,I2C,Setup Read to [0x0C] + NAK,,,,,,,,
3.342829296,I2C,Setup Write to [0x69] + ACK,,,,,,,,
3.34285706,I2C,0x7F + ACK,,,,,,,,
3.342884252,I2C,0x00 + ACK,,,,,,,,
3.342942432,I2C,Setup Write to [0x69] + ACK,,,,,,,,
3.342970196,I2C,0x1A + ACK,,,,,,,,
3.343003944,I2C,Setup Read to [0x69] + ACK,,,,,,,,
3.343030636,I2C,0x01 + NAK,,,,,,,,
3.343106256,I2C,Setup Write to [0x69] + ACK,,,,,,,,
3.34313402,I2C,0x7F + ACK,,,,,,,,
3.343161212,I2C,0x00 + ACK,,,,,,,,
3.343219328,I2C,Setup Write to [0x69] + ACK,,,,,,,,
3.343247028,I2C,0x2D + ACK,,,,,,,,
3.343280968,I2C,Setup Read to [0x69] + ACK,,,,,,,,
3.343307596,I2C,0xFF + ACK,,,,,,,,
3.343335348,I2C,0x30 + ACK,,,,,,,,
3.3433631,I2C,0xFF + ACK,,,,,,,,
3.343390856,I2C,0xE8 + ACK,,,,,,,,
3.343418608,I2C,0x40 + ACK,,,,,,,,
3.343446356,I2C,0xA0 + ACK,,,,,,,,
3.343474112,I2C,0xFE + ACK,,,,,,,,
3.343501864,I2C,0xC2 + ACK,,,,,,,,
3.343529616,I2C,0xFF + ACK,,,,,,,,
3.343557368,I2C,0xC3 + ACK,,,,,,,,
3.34358512,I2C,0xFE + ACK,,,,,,,,
3.343612872,I2C,0x68 + ACK,,,,,,,,
3.343640624,I2C,0x04 + ACK,,,,,,,,
3.343668436,I2C,0xB0 + NAK,,,,,,,,
3.343796496,I2C,Setup Write to [0x69] + ACK,,,,,,,,
3.343824264,I2C,0x7F + ACK,,,,,,,,
3.343851452,I2C,0x20 + ACK,,,,,,,,
3.343909568,I2C,Setup Write to [0x69] + ACK,,,,,,,,
3.343937336,I2C,0x14 + ACK,,,,,,,,
3.343971272,I2C,Setup Read to [0x69] + ACK,,,,,,,,
3.343997968,I2C,0x38 + NAK,,,,,,,,
3.34407352,I2C,Setup Write to [0x69] + ACK,,,,,,,,
3.34410122,I2C,0x7F + ACK,,,,,,,,
3.344128412,I2C,0x20 + ACK,,,,,,,,
3.344186528,I2C,Setup Write to [0x69] + ACK,,,,,,,,
3.344214292,I2C,0x01 + ACK,,,,,,,,
3.344248228,I2C,Setup Read to [0x69] + ACK,,,,,,,,
3.34427492,I2C,0x38 + NAK,,,,,,,,
3.344340476,I2C,Setup Write to [0x69] + ACK,,,,,,,,
3.344368244,I2C,0x15 + ACK,,,,,,,,
3.34440218,I2C,Setup Read to [0x69] + ACK,,,,,,,,
3.344428876,I2C,0x00 + NAK,,,,,,,,
3.34449324,I2C,Setup Write to [0x0C] + NAK,,,,,,,,
3.344537748,I2C,Setup Read to [0x0C] + NAK,,,,,,,,
3.383569012,I2C,Setup Write to [0x69] + ACK,,,,,,,,
3.383596776,I2C,0x7F + ACK,,,,,,,,
3.383623964,I2C,0x00 + ACK,,,,,,,,
3.383682148,I2C,Setup Write to [0x69] + ACK,,,,,,,,
3.383709912,I2C,0x1A + ACK,,,,,,,,
3.38374366,I2C,Setup Read to [0x69] + ACK,,,,,,,,
3.383770356,I2C,0x01 + NAK,,,,,,,,
3.383845972,I2C,Setup Write to [0x69] + ACK,,,,,,,,
3.383873736,I2C,0x7F + ACK,,,,,,,,
3.383900924,I2C,0x00 + ACK,,,,,,,,
3.383959044,I2C,Setup Write to [0x69] + ACK,,,,,,,,
3.383986744,I2C,0x2D + ACK,,,,,,,,
3.384020684,I2C,Setup Read to [0x69] + ACK,,,,,,,,
3.384047312,I2C,0xFF + ACK,,,,,,,,
3.384075064,I2C,0xF0 + ACK,,,,,,,,
3.384102816,I2C,0xFF + ACK,,,,,,,,
3.384130572,I2C,0x78 + ACK,,,,,,,,
3.384158324,I2C,0x40 + ACK,,,,,,,,
3.384186076,I2C,0x00 + ACK,,,,,,,,
3.384213824,I2C,0xFF + ACK,,,,,,,,
3.384241576,I2C,0x99 + ACK,,,,,,,,
3.384269332,I2C,0x00 + ACK,,,,,,,,
3.384297084,I2C,0x63 + ACK,,,,,,,,
3.384324836,I2C,0x00 + ACK,,,,,,,,
3.384352588,I2C,0x16 + ACK,,,,,,,,
3.38438034,I2C,0x04 + ACK,,,,,,,,
3.384408152,I2C,0xA0 + NAK,,,,,,,,
3.384536276,I2C,Setup Write to [0x69] + ACK,,,,,,,,
3.38456398,I2C,0x7F + ACK,,,,,,,,
3.384591168,I2C,0x20 + ACK,,,,,,,,
3.384649284,I2C,Setup Write to [0x69] + ACK,,,,,,,,
3.384677052,I2C,0x14 + ACK,,,,,,,,
3.384710988,I2C,Setup Read to [0x69] + ACK,,,,,,,,
3.38473768,I2C,0x38 + NAK,,,,,,,,
3.384813236,I2C,Setup Write to [0x69] + ACK,,,,,,,,
3.384840936,I2C,0x7F + ACK,,,,,,,,
3.384868124,I2C,0x20 + ACK,,,,,,,,
3.384926244,I2C,Setup Write to [0x69] + ACK,,,,,,,,
3.384954008,I2C,0x01 + ACK,,,,,,,,
3.384987944,I2C,Setup Read to [0x69] + ACK,,,,,,,,
3.38501464,I2C,0x38 + NAK,,,,,,,,
3.385080192,I2C,Setup Write to [0x69] + ACK,,,,,,,,
3.38510796,I2C,0x15 + ACK,,,,,,,,
3.385141896,I2C,Setup Read to [0x69] + ACK,,,,,,,,
3.385168588,I2C,0x00 + NAK,,,,,,,,
3.385232956,I2C,Setup Write to [0x0C] + NAK,,,,,,,,
3.385277464,I2C,Setup Read to [0x0C] + NAK,,,,,,,,
3.424393732,I2C,Setup Write to [0x69] + ACK,,,,,,,,
3.4244215,I2C,0x7F + ACK,,,,,,,,
3.424448688,I2C,0x00 + ACK,,,,,,,,
3.424513116,I2C,Setup Write to [0x69] + ACK,,,,,,,,
3.424540884,I2C,0x1A + ACK,,,,,,,,
3.424574632,I2C,Setup Read to [0x69] + ACK,,,,,,,,
3.424601324,I2C,0x01 + NAK,,,,,,,,
3.424676944,I2C,Setup Write to [0x69] + ACK,,,,,,,,
3.424704708,I2C,0x7F + ACK,,,,,,,,
3.4247319,I2C,0x00 + ACK,,,,,,,,
3.424790016,I2C,Setup Write to [0x69] + ACK,,,,,,,,
3.42481772,I2C,0x2D + ACK,,,,,,,,
3.424851656,I2C,Setup Read to [0x69] + ACK,,,,,,,,
3.424878284,I2C,0xFF + ACK,,,,,,,,
3.42490604,I2C,0x48 + ACK,,,,,,,,
3.424933792,I2C,0xFF + ACK,,,,,,,,
3.42496154,I2C,0xA0 + ACK,,,,,,,,
3.424989296,I2C,0x41 + ACK,,,,,,,,
3.425017048,I2C,0x28 + ACK,,,,,,,,
3.425044796,I2C,0xFF + ACK,,,,,,,,
3.425072548,I2C,0xC6 + ACK,,,,,,,,
3.425100304,I2C,0x00 + ACK,,,,,,,,
3.425128056,I2C,0xEE + ACK,,,,,,,,
3.425155808,I2C,0xFF + ACK,,,,,,,,
3.425183564,I2C,0x26 + ACK,,,,,,,,
3.425211316,I2C,0x04 + ACK,,,,,,,,
3.425239128,I2C,0xE0 + NAK,,,,,,,,
3.425367248,I2C,Setup Write to [0x69] + ACK,,,,,,,,
3.425395012,I2C,0x7F + ACK,,,,,,,,
3.425422204,I2C,0x20 + ACK,,,,,,,,
3.42548032,I2C,Setup Write to [0x69] + ACK,,,,,,,,
3.425508024,I2C,0x14 + ACK,,,,,,,,
3.42554196,I2C,Setup Read to [0x69] + ACK,,,,,,,,
3.425568652,I2C,0x38 + NAK,,,,,,,,
3.425644208,I2C,Setup Write to [0x69] + ACK,,,,,,,,
3.425671912,I2C,0x7F + ACK,,,,,,,,
3.4256991,I2C,0x20 + ACK,,,,,,,,
3.425757216,I2C,Setup Write to [0x69] + ACK,,,,,,,,
3.425784984,I2C,0x01 + ACK,,,,,,,,
3.42581892,I2C,Setup Read to [0x69] + ACK,,,,,,,,
3.425845612,I2C,0x38 + NAK,,,,,,,,
3.425911168,I2C,Setup Write to [0x69] + ACK,,,,,,,,
3.425938932,I2C,0x15 + ACK,,,,,,,,
3.425972868,I2C,Setup Read to [0x69] + ACK,,,,,,,,
3.42599956,I2C,0x00 + NAK,,,,,,,,
3.426063932,I2C,Setup Write to [0x0C] + NAK,,,,,,,,
3.426108436,I2C,Setup Read to [0x0C] + NAK,,,,,,,,
3.4651397,I2C,Setup Write to [0x69] + ACK,,,,,,,,
3.465167468,I2C,0x7F + ACK,,,,,,,,
3.465194652,I2C,0x00 + ACK,,,,,,,,
3.465252836,I2C,Setup Write to [0x69] + ACK,,,,,,,,
3.4652806,I2C,0x1A + ACK,,,,,,,,
3.465314536,I2C,Setup Read to [0x69] + ACK,,,,,,,,
3.465341228,I2C,0x01 + NAK,,,,,,,,
3.465416848,I2C,Setup Write to [0x69] + ACK,,,,,,,,
3.465446932,I2C,0x7F + ACK,,,,,,,,
3.465474116,I2C,0x00 + ACK,,,,,,,,
3.465532232,I2C,Setup Write to [0x69] + ACK,,,,,,,,
3.465559936,I2C,0x2D + ACK,,,,,,,,
3.465593872,I2C,Setup Read to [0x69] + ACK,,,,,,,,
3.4656205,I2C,0xFF + ACK,,,,,,,,
3.465648252,I2C,0xA0 + ACK,,,,,,,,
3.465676004,I2C,0xFE + ACK,,,,,,,,
3.465703756,I2C,0xF8 + ACK,,,,,,,,
3.465731512,I2C,0x40 + ACK,,,,,,,,
3.46575926,I2C,0xE8 + ACK,,,,,,,,
3.465787016,I2C,0x00 + ACK,,,,,,,,
3.465814768,I2C,0x51 + ACK,,,,,,,,
3.46584252,I2C,0xFF + ACK,,,,,,,,
3.465870272,I2C,0xAE + ACK,,,,,,,,
3.465898024,I2C,0x00 + ACK,,,,,,,,
3.46592578,I2C,0x26 + ACK,,,,,,,,
3.465953532,I2C,0x05 + ACK,,,,,,,,
3.465981348,I2C,0x10 + NAK,,,,,,,,
3.466109464,I2C,Setup Write to [0x69] + ACK,,,,,,,,
3.466137228,I2C,0x7F + ACK,,,,,,,,
3.46616442,I2C,0x20 + ACK,,,,,,,,
3.466222536,I2C,Setup Write to [0x69] + ACK,,,,,,,,
3.4662503,I2C,0x14 + ACK,,,,,,,,
3.466284052,I2C,Setup Read to [0x69] + ACK,,,,,,,,
3.466310744,I2C,0x38 + NAK,,,,,,,,
3.466386296,I2C,Setup Write to [0x69] + ACK,,,,,,,,
3.466414,I2C,0x7F + ACK,,,,,,,,
3.466441192,I2C,0x20 + ACK,,,,,,,,
3.466501308,I2C,Setup Write to [0x69] + ACK,,,,,,,,
3.466529072,I2C,0x01 + ACK,,,,,,,,
3.466563012,I2C,Setup Read to [0x69] + ACK,,,,,,,,
3.466589704,I2C,0x38 + NAK,,,,,,,,
3.466655256,I2C,Setup Write to [0x69] + ACK,,,,,,,,
3.466683024,I2C,0x15 + ACK,,,,,,,,
3.46671696,I2C,Setup Read to [0x69] + ACK,,,,,,,,
3.466743652,I2C,0x00 + NAK,,,,,,,,
3.466808024,I2C,Setup Write to [0x0C] + NAK,,,,,,,,
3.466852528,I2C,Setup Read to [0x0C] + NAK,,,,,,,,
3.505882604,I2C,Setup Write to [0x69] + ACK,,,,,,,,
3.505910368,I2C,0x7F + ACK,,,,,,,,
3.505937556,I2C,0x00 + ACK,,,,,,,,
3.50599574,I2C,Setup Write to [0x69] + ACK,,,,,,,,
3.5060235,I2C,0x1A + ACK,,,,,,,,
3.50605744,I2C,Setup Read to [0x69] + ACK,,,,,,,,
3.506084132,I2C,0x01 + NAK,,,,,,,,
3.506159752,I2C,Setup Write to [0x69] + ACK,,,,,,,,
3.506187516,I2C,0x7F + ACK,,,,,,,,
3.506214708,I2C,0x00 + ACK,,,,,,,,
3.50627282,I2C,Setup Write to [0x69] + ACK,,,,,,,,
3.506300524,I2C,0x2D + ACK,,,,,,,,
3.50633446,I2C,Setup Read to [0x69] + ACK,,,,,,,,
3.506361088,I2C,0xFF + ACK,,,,,,,,
3.506388848,I2C,0x60 + ACK,,,,,,,,
3.506416596,I2C,0xFF + ACK,,,,,,,,
3.506444352,I2C,0x78 + ACK,,,,,,,,
3.5064721,I2C,0x40 + ACK,,,,,,,,
3.506499852,I2C,0x38 + ACK,,,,,,,,
3.506527608,I2C,0x00 + ACK,,,,,,,,
3.50655536,I2C,0x55 + ACK,,,,,,,,
3.506583112,I2C,0xFF + ACK,,,,,,,,
3.506610864,I2C,0x69 + ACK,,,,,,,,
3.506638616,I2C,0x00 + ACK,,,,,,,,
3.506666364,I2C,0xF3 + ACK,,,,,,,,
3.506694124,I2C,0x04 + ACK,,,,,,,,
3.506721932,I2C,0xF0 + NAK,,,,,,,,
3.506849992,I2C,Setup Write to [0x69] + ACK,,,,,,,,
3.506877756,I2C,0x7F + ACK,,,,,,,,
3.506904948,I2C,0x20 + ACK,,,,,,,,
3.506963064,I2C,Setup Write to [0x69] + ACK,,,,,,,,
3.506990832,I2C,0x14 + ACK,,,,,,,,
3.507024768,I2C,Setup Read to [0x69] + ACK,,,,,,,,
3.50705146,I2C,0x38 + NAK,,,,,,,,
3.507127012,I2C,Setup Write to [0x69] + ACK,,,,,,,,
3.507154716,I2C,0x7F + ACK,,,,,,,,
3.507181908,I2C,0x20 + ACK,,,,,,,,
3.507240024,I2C,Setup Write to [0x69] + ACK,,,,,,,,
3.507267788,I2C,0x01 + ACK,,,,,,,,
3.507301724,I2C,Setup Read to [0x69] + ACK,,,,,,,,
3.507328416,I2C,0x38 + NAK,,,,,,,,
3.507393972,I2C,Setup Write to [0x69] + ACK,,,,,,,,
3.50742174,I2C,0x15 + ACK,,,,,,,,
3.507455488,I2C,Setup Read to [0x69] + ACK,,,,,,,,
3.50748218,I2C,0x00 + NAK,,,,,,,,
3.507546548,I2C,Setup Write to [0x0C] + NAK,,,,,,,,
3.507591056,I2C,Setup Read to [0x0C] + NAK,,,,,,,,
3.54662232,I2C,Setup Write to [0x69] + ACK,,,,,,,,
3.546650084,I2C,0x7F + ACK,,,,,,,,
3.546677272,I2C,0x00 + ACK,,,,,,,,
3.546735456,I2C,Setup Write to [0x69] + ACK,,,,,,,,
3.54676322,I2C,0x1A + ACK,,,,,,,,
3.546796968,I2C,Setup Read to [0x69] + ACK,,,,,,,,
3.546823664,I2C,0x01 + NAK,,,,,,,,
3.546899276,I2C,Setup Write to [0x69] + ACK,,,,,,,,
3.546927044,I2C,0x7F + ACK,,,,,,,,
3.546954232,I2C,0x00 + ACK,,,,,,,,
3.547012352,I2C,Setup Write to [0x69] + ACK,,,,,,,,
3.547040052,I2C,0x2D + ACK,,,,,,,,
3.547073988,I2C,Setup Read to [0x69] + ACK,,,,,,,,
3.54710062,I2C,0xFF + ACK,,,,,,,,
3.547128372,I2C,0x88 + ACK,,,,,,,,
3.547156124,I2C,0xFF + ACK,,,,,,,,
3.54718388,I2C,0x18 + ACK,,,,,,,,
3.547211632,I2C,0x40 + ACK,,,,,,,,
3.547239384,I2C,0xB8 + ACK,,,,,,,,
3.547267136,I2C,0xFF + ACK,,,,,,,,
3.547294888,I2C,0x58 + ACK,,,,,,,,
3.547322636,I2C,0xFE + ACK,,,,,,,,
3.547350392,I2C,0xE3 + ACK,,,,,,,,
3.547378144,I2C,0x00 + ACK,,,,,,,,
3.547405896,I2C,0x56 + ACK,,,,,,,,
3.547433648,I2C,0x04 + ACK,,,,,,,,
3.54746146,I2C,0xD0 + NAK,,,,,,,,
3.54758952,I2C,Setup Write to [0x69] + ACK,,,,,,,,
3.547617284,I2C,0x7F + ACK,,,,,,,,
3.547644476,I2C,0x20 + ACK,,,,,,,,
3.547702592,I2C,Setup Write to [0x69] + ACK,,,,,,,,
3.547730356,I2C,0x14 + ACK,,,,,,,,
3.547764296,I2C,Setup Read to [0x69] + ACK,,,,,,,,
3.547790988,I2C,0x38 + NAK,,,,,,,,
3.54786654,I2C,Setup Write to [0x69] + ACK,,,,,,,,
3.547894244,I2C,0x7F + ACK,,,,,,,,
3.547921436,I2C,0x20 + ACK,,,,,,,,
3.547979552,I2C,Setup Write to [0x69] + ACK,,,,,,,,
3.548007316,I2C,0x01 + ACK,,,,,,,,
3.548041252,I2C,Setup Read to [0x69] + ACK,,,,,,,,
3.548067944,I2C,0x38 + NAK,,,,,,,,
3.5481335,I2C,Setup Write to [0x69] + ACK,,,,,,,,
3.548161268,I2C,0x15 + ACK,,,,,,,,
3.548195204,I2C,Setup Read to [0x69] + ACK,,,,,,,,
3.5482219,I2C,0x00 + NAK,,,,,,,,
3.548286264,I2C,Setup Write to [0x0C] + NAK,,,,,,,,
3.548330772,I2C,Setup Read to [0x0C] + NAK,,,,,,,,
3.587363284,I2C,Setup Write to [0x69] + ACK,,,,,,,,
3.587391052,I2C,0x7F + ACK,,,,,,,,
3.58741824,I2C,0x00 + ACK,,,,,,,,
3.58747642,I2C,Setup Write to [0x69] + ACK,,,,,,,,
3.587504184,I2C,0x1A + ACK,,,,,,,,
3.587537932,I2C,Setup Read to [0x69] + ACK,,,,,,,,
3.587564628,I2C,0x01 + NAK,,,,,,,,
3.587640244,I2C,Setup Write to [0x69] + ACK,,,,,,,,
3.587668008,I2C,0x7F + ACK,,,,,,,,
3.5876952,I2C,0x00 + ACK,,,,,,,,
3.587753316,I2C,Setup Write to [0x69] + ACK,,,,,,,,
3.58778102,I2C,0x2D + ACK,,,,,,,,
3.587814956,I2C,Setup Read to [0x69] + ACK,,,,,,,,
3.587841584,I2C,0xFF + ACK,,,,,,,,
3.58786934,I2C,0xB0 + ACK,,,,,,,,
3.587897092,I2C,0xFF + ACK,,,,,,,,
3.587924844,I2C,0xE0 + ACK,,,,,,,,
3.5879526,I2C,0x3F + ACK,,,,,,,,
3.587980348,I2C,0xF8 + ACK,,,,,,,,
3.5880081,I2C,0xFF + ACK,,,,,,,,
3.588035852,I2C,0x93 + ACK,,,,,,,,
3.588063604,I2C,0xFF + ACK,,,,,,,,
3.588091356,I2C,0x80 + ACK,,,,,,,,
3.588119112,I2C,0x00 + ACK,,,,,,,,
3.588146864,I2C,0x1F + ACK,,,,,,,,
3.588174612,I2C,0x04 + ACK,,,,,,,,
3.588202428,I2C,0xB0 + NAK,,,,,,,,
3.58833556,I2C,Setup Write to [0x69] + ACK,,,,,,,,
3.588363256,I2C,0x7F + ACK,,,,,,,,
3.588390444,I2C,0x20 + ACK,,,,,,,,
3.588448556,I2C,Setup Write to [0x69] + ACK,,,,,,,,
3.588476324,I2C,0x14 + ACK,,,,,,,,
3.58851026,I2C,Setup Read to [0x69] + ACK,,,,,,,,
3.588536952,I2C,0x38 + NAK,,,,,,,,
3.588612508,I2C,Setup Write to [0x69] + ACK,,,,,,,,
3.588640212,I2C,0x7F + ACK,,,,,,,,
3.5886674,I2C,0x20 + ACK,,,,,,,,
3.58872552,I2C,Setup Write to [0x69] + ACK,,,,,,,,
3.588753284,I2C,0x01 + ACK,,,,,,,,
3.58878722,I2C,Setup Read to [0x69] + ACK,,,,,,,,
3.588813916,I2C,0x38 + NAK,,,,,,,,
3.588879468,I2C,Setup Write to [0x69] + ACK,,,,,,,,
3.588907232,I2C,0x15 + ACK,,,,,,,,
3.588941172,I2C,Setup Read to [0x69] + ACK,,,,,,,,
3.588967864,I2C,0x00 + NAK,,,,,,,,
3.589032232,I2C,Setup Write to [0x0C] + NAK,,,,,,,,
3.58907674,I2C,Setup Read to [0x0C] + NAK,,,,,,,,
3.628108064,I2C,Setup Write to [0x69] + ACK,,,,,,,,
3.628135828,I2C,0x7F + ACK,,,,,,,,
3.62816302,I2C,0x00 + ACK,,,,,,,,
3.628221196,I2C,Setup Write to [0x69] + ACK,,,,,,,,
3.628248964,I2C,0x1A + ACK,,,,,,,,
3.628282712,I2C,Setup Read to [0x69] + ACK,,,,,,,,
3.628309404,I2C,0x01 + NAK,,,,,,,,
3.628385024,I2C,Setup Write to [0x69] + ACK,,,,,,,,
3.628412788,I2C,0x7F + ACK,,,,,,,,
3.628439976,I2C,0x00 + ACK,,,,,,,,
3.628498096,I2C,Setup Write to [0x69] + ACK,,,,,,,,
3.628525796,I2C,0x2D + ACK,,,,,,,,
3.628559736,I2C,Setup Read to [0x69] + ACK,,,,,,,,
3.628586364,I2C,0xFF + ACK,,,,,,,,
3.62861412,I2C,0xA0 + ACK,,,,,,,,
3.628641868,I2C,0xFF + ACK,,,,,,,,
3.628669624,I2C,0x30 + ACK,,,,,,,,
3.628697376,I2C,0x40 + ACK,,,,,,,,
3.628725128,I2C,0x10 + ACK,,,,,,,,
3.628752876,I2C,0xFF + ACK,,,,,,,,
3.628780628,I2C,0x90 + ACK,,,,,,,,
3.628808384,I2C,0x00 + ACK,,,,,,,,
3.628836132,I2C,0x83 + ACK,,,,,,,,
3.628863884,I2C,0xFE + ACK,,,,,,,,
3.628891636,I2C,0xA9 + ACK,,,,,,,,
3.628919396,I2C,0x04 + ACK,,,,,,,,
3.628947204,I2C,0xD0 + NAK,,,,,,,,
3.629075324,I2C,Setup Write to [0x69] + ACK,,,,,,,,
3.629103092,I2C,0x7F + ACK,,,,,,,,
3.629130284,I2C,0x20 + ACK,,,,,,,,
3.6291884,I2C,Setup Write to [0x69] + ACK,,,,,,,,
3.629216164,I2C,0x14 + ACK,,,,,,,,
3.629249912,I2C,Setup Read to [0x69] + ACK,,,,,,,,
3.629276608,I2C,0x38 + NAK,,,,,,,,
3.629350976,I2C,Setup Write to [0x69] + ACK,,,,,,,,
3.62937874,I2C,0x7F + ACK,,,,,,,,
3.629405932,I2C,0x20 + ACK,,,,,,,,
3.629464044,I2C,Setup Write to [0x69] + ACK,,,,,,,,
3.629491812,I2C,0x01 + ACK,,,,,,,,
3.629525748,I2C,Setup Read to [0x69] + ACK,,,,,,,,
3.629552444,I2C,0x38 + NAK,,,,,,,,
3.629617996,I2C,Setup Write to [0x69] + ACK,,,,,,,,
3.62964576,I2C,0x15 + ACK,,,,,,,,
3.629679696,I2C,Setup Read to [0x69] + ACK,,,,,,,,
3.629706388,I2C,0x00 + NAK,,,,,,,,
3.62977076,I2C,Setup Write to [0x0C] + NAK,,,,,,,,
3.629815264,I2C,Setup Read to [0x0C] + NAK,,,,,,,,
3.668846592,I2C,Setup Write to [0x69] + ACK,,,,,,,,
3.668874356,I2C,0x7F + ACK,,,,,,,,
3.668901548,I2C,0x00 + ACK,,,,,,,,
3.668959728,I2C,Setup Write to [0x69] + ACK,,,,,,,,
3.668987492,I2C,0x1A + ACK,,,,,,,,
3.669021428,I2C,Setup Read to [0x69] + ACK,,,,,,,,
3.66904812,I2C,0x01 + NAK,,,,,,,,
3.66912374,I2C,Setup Write to [0x69] + ACK,,,,,,,,
3.669151504,I2C,0x7F + ACK,,,,,,,,
3.669178692,I2C,0x00 + ACK,,,,,,,,
3.669243124,I2C,Setup Write to [0x69] + ACK,,,,,,,,
3.669270888,I2C,0x2D + ACK,,,,,,,,
3.669304828,I2C,Setup Read to [0x69] + ACK,,,,,,,,
3.669331456,I2C,0x00 + ACK,,,,,,,,
3.669359212,I2C,0x18 + ACK,,,,,,,,
3.669386964,I2C,0x00 + ACK,,,,,,,,
3.669414712,I2C,0x00 + ACK,,,,,,,,
3.669442464,I2C,0x41 + ACK,,,,,,,,
3.669470216,I2C,0x20 + ACK,,,,,,,,
3.669497968,I2C,0xFF + ACK,,,,,,,,
3.669525724,I2C,0x17 + ACK,,,,,,,,
3.669553476,I2C,0x01 + ACK,,,,,,,,
3.669581224,I2C,0x89 + ACK,,,,,,,,
3.669608976,I2C,0xFF + ACK,,,,,,,,
3.669636732,I2C,0x32 + ACK,,,,,,,,
3.669664488,I2C,0x05 + ACK,,,,,,,,
3.6696923,I2C,0x20 + NAK,,,,,,,,
3.669820416,I2C,Setup Write to [0x69] + ACK,,,,,,,,
3.669848184,I2C,0x7F + ACK,,,,,,,,
3.669875372,I2C,0x20 + ACK,,,,,,,,
3.669933492,I2C,Setup Write to [0x69] + ACK,,,,,,,,
3.669961252,I2C,0x14 + ACK,,,,,,,,
3.669995004,I2C,Setup Read to [0x69] + ACK,,,,,,,,
3.670021696,I2C,0x38 + NAK,,,,,,,,
3.670097252,I2C,Setup Write to [0x69] + ACK,,,,,,,,
3.670124956,I2C,0x7F + ACK,,,,,,,,
3.670152144,I2C,0x20 + ACK,,,,,,,,
3.67021026,I2C,Setup Write to [0x69] + ACK,,,,,,,,
3.670238028,I2C,0x01 + ACK,,,,,,,,
3.670271776,I2C,Setup Read to [0x69] + ACK,,,,,,,,
3.670298468,I2C,0x38 + NAK,,,,,,,,
3.670364024,I2C,Setup Write to [0x69] + ACK,,,,,,,,
3.670391788,I2C,0x15 + ACK,,,,,,,,
3.670425728,I2C,Setup Read to [0x69] + ACK,,,,,,,,
3.67045242,I2C,0x00 + NAK,,,,,,,,
3.670516788,I2C,Setup Write to [0x0C] + NAK,,,,,,,,
3.670561292,I2C,Setup Read to [0x0C] + NAK,,,,,,,,
3.70959012,I2C,Setup Write to [0x69] + ACK,,,,,,,,
3.709617884,I2C,0x7F + ACK,,,,,,,,
3.709645076,I2C,0x00 + ACK,,,,,,,,
3.709703256,I2C,Setup Write to [0x69] + ACK,,,,,,,,
3.70973102,I2C,0x1A + ACK,,,,,,,,
3.709764768,I2C,Setup Read to [0x69] + ACK,,,,,,,,
3.70979146,I2C,0x01 + NAK,,,,,,,,
3.70986708,I2C,Setup Write to [0x69] + ACK,,,,,,,,
3.709894844,I2C,0x7F + ACK,,,,,,,,
3.709922036,I2C,0x00 + ACK,,,,,,,,
3.709980148,I2C,Setup Write to [0x69] + ACK,,,,,,,,
3.710007852,I2C,0x2D + ACK,,,,,,,,
3.710041788,I2C,Setup Read to [0x69] + ACK,,,,,,,,
3.71006842,I2C,0xFF + ACK,,,,,,,,
3.710096172,I2C,0xE8 + ACK,,,,,,,,
3.710123924,I2C,0xFF + ACK,,,,,,,,
3.71015168,I2C,0x28 + ACK,,,,,,,,
3.710179432,I2C,0x40 + ACK,,,,,,,,
3.71020718,I2C,0xD8 + ACK,,,,,,,,
3.710234932,I2C,0xFF + ACK,,,,,,,,
3.710262688,I2C,0xC0 + ACK,,,,,,,,
3.71029044,I2C,0xFE + ACK,,,,,,,,
3.710318192,I2C,0xF0 + ACK,,,,,,,,
3.710345944,I2C,0xFF + ACK,,,,,,,,
3.7103737,I2C,0x7B + ACK,,,,,,,,
3.710401452,I2C,0x04 + ACK,,,,,,,,
3.710429264,I2C,0xF0 + NAK,,,,,,,,
3.71055732,I2C,Setup Write to [0x69] + ACK,,,,,,,,
3.710585084,I2C,0x7F + ACK,,,,,,,,
3.710612276,I2C,0x20 + ACK,,,,,,,,
3.710670396,I2C,Setup Write to [0x69] + ACK,,,,,,,,
3.71069816,I2C,0x14 + ACK,,,,,,,,
3.710732092,I2C,Setup Read to [0x69] + ACK,,,,,,,,
3.710758788,I2C,0x38 + NAK,,,,,,,,
3.710834344,I2C,Setup Write to [0x69] + ACK,,,,,,,,
3.710862044,I2C,0x7F + ACK,,,,,,,,
3.710889236,I2C,0x20 + ACK,,,,,,,,
3.710947352,I2C,Setup Write to [0x69] + ACK,,,,,,,,
3.71097512,I2C,0x01 + ACK,,,,,,,,
3.711009052,I2C,Setup Read to [0x69] + ACK,,,,,,,,
3.711035748,I2C,0x38 + NAK,,,,,,,,
3.711101304,I2C,Setup Write to [0x69] + ACK,,,,,,,,
3.711129068,I2C,0x15 + ACK,,,,,,,,
3.711163004,I2C,Setup Read to [0x69] + ACK,,,,,,,,
3.711189696,I2C,0x00 + NAK,,,,,,,,
3.711260316,I2C,Setup Write to [0x0C] + NAK,,,,,,,,
3.711304884,I2C,Setup Read to [0x0C] + NAK,,,,,,,,
3.750336212,I2C,Setup Write to [0x69] + ACK,,,,,,,,
3.750363916,I2C,0x7F + ACK,,,,,,,,
3.750391104,I2C,0x00 + ACK,,,,,,,,
3.750449284,I2C,Setup Write to [0x69] + ACK,,,,,,,,
3.750477048,I2C,0x1A + ACK,,,,,,,,
3.750510984,I2C,Setup Read to [0x69] + ACK,,,,,,,,
3.750537676,I2C,0x01 + NAK,,,,,,,,
3.750613296,I2C,Setup Write to [0x69] + ACK,,,,,,,,
3.75064106,I2C,0x7F + ACK,,,,,,,,
3.750668252,I2C,0x00 + ACK,,,,,,,,
3.750726368,I2C,Setup Write to [0x69] + ACK,,,,,,,,
3.750754068,I2C,0x2D + ACK,,,,,,,,
3.750788008,I2C,Setup Read to [0x69] + ACK,,,,,,,,
3.750814636,I2C,0xFF + ACK,,,,,,,,
3.750842392,I2C,0x60 + ACK,,,,,,,,
3.75087014,I2C,0xFF + ACK,,,,,,,,
3.750897896,I2C,0xB0 + ACK,,,,,,,,
3.750925648,I2C,0x40 + ACK,,,,,,,,
3.750953396,I2C,0xB8 + ACK,,,,,,,,
3.750981152,I2C,0xFF + ACK,,,,,,,,
3.751008908,I2C,0x41 + ACK,,,,,,,,
3.75103666,I2C,0x00 + ACK,,,,,,,,
3.751064412,I2C,0x41 + ACK,,,,,,,,
3.75109216,I2C,0x01 + ACK,,,,,,,,
3.751119912,I2C,0x39 + ACK,,,,,,,,
3.751147664,I2C,0x04 + ACK,,,,,,,,
3.751175476,I2C,0xD0 + NAK,,,,,,,,
3.751303536,I2C,Setup Write to [0x69] + ACK,,,,,,,,
3.751331304,I2C,0x7F + ACK,,,,,,,,
3.751358492,I2C,0x20 + ACK,,,,,,,,
3.751416608,I2C,Setup Write to [0x69] + ACK,,,,,,,,
3.751444376,I2C,0x14 + ACK,,,,,,,,
3.751478312,I2C,Setup Read to [0x69] + ACK,,,,,,,,
3.751505008,I2C,0x38 + NAK,,,,,,,,
3.75158056,I2C,Setup Write to [0x69] + ACK,,,,,,,,
3.751608264,I2C,0x7F + ACK,,,,,,,,
3.751635452,I2C,0x20 + ACK,,,,,,,,
3.751693568,I2C,Setup Write to [0x69] + ACK,,,,,,,,
3.751721332,I2C,0x01 + ACK,,,,,,,,
3.751755268,I2C,Setup Read to [0x69] + ACK,,,,,,,,
3.75178196,I2C,0x38 + NAK,,,,,,,,
3.75184752,I2C,Setup Write to [0x69] + ACK,,,,,,,,
3.751875284,I2C,0x15 + ACK,,,,,,,,
3.75190922,I2C,Setup Read to [0x69] + ACK,,,,,,,,
3.751935912,I2C,0x00 + NAK,,,,,,,,
3.75200028,I2C,Setup Write to [0x0C] + NAK,,,,,,,,
3.752044788,I2C,Setup Read to [0x0C] + NAK,,,,,,,,
3.791073552,I2C,Setup Write to [0x69] + ACK,,,,,,,,
3.791104572,I2C,0x7F + ACK,,,,,,,,
3.791131756,I2C,0x00 + ACK,,,,,,,,
3.791189936,I2C,Setup Write to [0x69] + ACK,,,,,,,,
3.7912177,I2C,0x1A + ACK,,,,,,,,
3.791251452,I2C,Setup Read to [0x69] + ACK,,,,,,,,
3.791278144,I2C,0x01 + NAK,,,,,,,,
3.79135376,I2C,Setup Write to [0x69] + ACK,,,,,,,,
3.791381524,I2C,0x7F + ACK,,,,,,,,
3.791408716,I2C,0x00 + ACK,,,,,,,,
3.791466832,I2C,Setup Write to [0x69] + ACK,,,,,,,,
3.791494536,I2C,0x2D + ACK,,,,,,,,
3.791528472,I2C,Setup Read to [0x69] + ACK,,,,,,,,
3.7915551,I2C,0xFF + ACK,,,,,,,,
3.791582856,I2C,0xD0 + ACK,,,,,,,,
3.791610608,I2C,0x00 + ACK,,,,,,,,
3.79163836,I2C,0x60 + ACK,,,,,,,,
3.791666116,I2C,0x41 + ACK,,,,,,,,
3.791693868,I2C,0x30 + ACK,,,,,,,,
3.791721616,I2C,0xFE + ACK,,,,,,,,
3.791749368,I2C,0x9E + ACK,,,,,,,,
3.791777124,I2C,0x00 + ACK,,,,,,,,
3.791804872,I2C,0x43 + ACK,,,,,,,,
3.791832624,I2C,0xFF + ACK,,,,,,,,
3.791860376,I2C,0x49 + ACK,,,,,,,,
3.791888128,I2C,0x04 + ACK,,,,,,,,
3.791915944,I2C,0xE0 + NAK,,,,,,,,
3.792044064,I2C,Setup Write to [0x69] + ACK,,,,,,,,
3.792071832,I2C,0x7F + ACK,,,,,,,,
3.79209902,I2C,0x20 + ACK,,,,,,,,
3.792159012,I2C,Setup Write to [0x69] + ACK,,,,,,,,
3.792186716,I2C,0x14 + ACK,,,,,,,,
3.792220652,I2C,Setup Read to [0x69] + ACK,,,,,,,,
3.792247344,I2C,0x38 + NAK,,,,,,,,
3.7923229,I2C,Setup Write to [0x69] + ACK,,,,,,,,
3.7923506,I2C,0x7F + ACK,,,,,,,,
3.792377792,I2C,0x20 + ACK,,,,,,,,
3.792435912,I2C,Setup Write to [0x69] + ACK,,,,,,,,
3.792463676,I2C,0x01 + ACK,,,,,,,,
3.792497612,I2C,Setup Read to [0x69] + ACK,,,,,,,,
3.792524304,I2C,0x38 + NAK,,,,,,,,
3.792589856,I2C,Setup Write to [0x69] + ACK,,,,,,,,
3.792617624,I2C,0x15 + ACK,,,,,,,,
3.79265156,I2C,Setup Read to [0x69] + ACK,,,,,,,,
3.792678252,I2C,0x00 + NAK,,,,,,,,
3.792742624,I2C,Setup Write to [0x0C] + NAK,,,,,,,,
3.792787132,I2C,Setup Read to [0x0C] + NAK,,,,,,,,
3.831819704,I2C,Setup Write to [0x69] + ACK,,,,,,,,
3.831847472,I2C,0x7F + ACK,,,,,,,,
3.83187466,I2C,0x00 + ACK,,,,,,,,
3.83193284,I2C,Setup Write to [0x69] + ACK,,,,,,,,
3.831960604,I2C,0x1A + ACK,,,,,,,,
3.831994356,I2C,Setup Read to [0x69] + ACK,,,,,,,,
3.832021048,I2C,0x01 + NAK,,,,,,,,
3.832101664,I2C,Setup Write to [0x69] + ACK,,,,,,,,
3.832129432,I2C,0x7F + ACK,,,,,,,,
3.83215662,I2C,0x00 + ACK,,,,,,,,
3.8322148,I2C,Setup Write to [0x69] + ACK,,,,,,,,
3.832242564,I2C,0x2D + ACK,,,,,,,,
3.8322765,I2C,Setup Read to [0x69] + ACK,,,,,,,,
3.832303132,I2C,0x00 + ACK,,,,,,,,
3.832330888,I2C,0x10 + ACK,,,,,,,,
3.832358636,I2C,0xFF + ACK,,,,,,,,
3.832386392,I2C,0x48 + ACK,,,,,,,,
3.832414144,I2C,0x40 + ACK,,,,,,,,
3.832441892,I2C,0xC8 + ACK,,,,,,,,
3.832469644,I2C,0xFE + ACK,,,,,,,,
3.832497396,I2C,0xB7 + ACK,,,,,,,,
3.832525152,I2C,0x00 + ACK,,,,,,,,
3.8325529,I2C,0x9F + ACK,,,,,,,,
3.832580652,I2C,0xFF + ACK,,,,,,,,
3.832608404,I2C,0xB5 + ACK,,,,,,,,
3.83263616,I2C,0x05 + ACK,,,,,,,,
3.832663972,I2C,0x10 + NAK,,,,,,,,
3.832792092,I2C,Setup Write to [0x69] + ACK,,,,,,,,
3.83281986,I2C,0x7F + ACK,,,,,,,,
3.832847048,I2C,0x20 + ACK,,,,,,,,
3.832905168,I2C,Setup Write to [0x69] + ACK,,,,,,,,
3.832932932,I2C,0x14 + ACK,,,,,,,,
3.83296668,I2C,Setup Read to [0x69] + ACK,,,,,,,,
3.832993376,I2C,0x38 + NAK,,,,,,,,
3.833068928,I2C,Setup Write to [0x69] + ACK,,,,,,,,
3.833096632,I2C,0x7F + ACK,,,,,,,,
3.83312382,I2C,0x20 + ACK,,,,,,,,
3.83318194,I2C,Setup Write to [0x69] + ACK,,,,,,,,
3.833209704,I2C,0x01 + ACK,,,,,,,,
3.833243452,I2C,Setup Read to [0x69] + ACK,,,,,,,,
3.833270148,I2C,0x38 + NAK,,,,,,,,
3.8333357,I2C,Setup Write to [0x69] + ACK,,,,,,,,
3.833363464,I2C,0x15 + ACK,,,,,,,,
3.8333974,I2C,Setup Read to [0x69] + ACK,,,,,,,,
3.833424096,I2C,0x00 + NAK,,,,,,,,
3.833488464,I2C,Setup Write to [0x0C] + NAK,,,,,,,,
3.833532972,I2C,Setup Read to [0x0C] + NAK,,,,,,,,
3.87256548,I2C,Setup Write to [0x69] + ACK,,,,,,,,
3.872593248,I2C,0x7F + ACK,,,,,,,,
3.87262044,I2C,0x00 + ACK,,,,,,,,
3.872678616,I2C,Setup Write to [0x69] + ACK,,,,,,,,
3.87270638,I2C,0x1A + ACK,,,,,,,,
3.87274032,I2C,Setup Read to [0x69] + ACK,,,,,,,,
3.872767012,I2C,0x01 + NAK,,,,,,,,
3.872842632,I2C,Setup Write to [0x69] + ACK,,,,,,,,
3.872870396,I2C,0x7F + ACK,,,,,,,,
3.872897584,I2C,0x00 + ACK,,,,,,,,
3.8729557,I2C,Setup Write to [0x69] + ACK,,,,,,,,
3.872983404,I2C,0x2D + ACK,,,,,,,,
3.87301734,I2C,Setup Read to [0x69] + ACK,,,,,,,,
3.873043972,I2C,0xFF + ACK,,,,,,,,
3.873071724,I2C,0xE0 + ACK,,,,,,,,
3.873099476,I2C,0xFF + ACK,,,,,,,,
3.873127228,I2C,0xA0 + ACK,,,,,,,,
3.87315498,I2C,0x40 + ACK,,,,,,,,
3.873182732,I2C,0xD8 + ACK,,,,,,,,
3.873210484,I2C,0xFF + ACK,,,,,,,,
3.873238236,I2C,0xCA + ACK,,,,,,,,
3.873265992,I2C,0x00 + ACK,,,,,,,,
3.873293744,I2C,0x31 + ACK,,,,,,,,
3.873321496,I2C,0x00 + ACK,,,,,,,,
3.873349248,I2C,0x54 + ACK,,,,,,,,
3.873377004,I2C,0x04 + ACK,,,,,,,,
3.873404812,I2C,0xA0 + NAK,,,,,,,,
3.873532872,I2C,Setup Write to [0x69] + ACK,,,,,,,,
3.873560636,I2C,0x7F + ACK,,,,,,,,
3.873587828,I2C,0x20 + ACK,,,,,,,,
3.873645944,I2C,Setup Write to [0x69] + ACK,,,,,,,,
3.873673708,I2C,0x14 + ACK,,,,,,,,
3.873707644,I2C,Setup Read to [0x69] + ACK,,,,,,,,
3.87373434,I2C,0x38 + NAK,,,,,,,,
3.873809892,I2C,Setup Write to [0x69] + ACK,,,,,,,,
3.873837596,I2C,0x7F + ACK,,,,,,,,
3.873864788,I2C,0x20 + ACK,,,,,,,,
3.873922904,I2C,Setup Write to [0x69] + ACK,,,,,,,,
3.873950668,I2C,0x01 + ACK,,,,,,,,
3.873984608,I2C,Setup Read to [0x69] + ACK,,,,,,,,
3.8740113,I2C,0x38 + NAK,,,,,,,,
3.874083104,I2C,Setup Write to [0x69] + ACK,,,,,,,,
3.874110868,I2C,0x15 + ACK,,,,,,,,
3.874144616,I2C,Setup Read to [0x69] + ACK,,,,,,,,
3.874171312,I2C,0x00 + NAK,,,,,,,,
3.87423568,I2C,Setup Write to [0x0C] + NAK,,,,,,,,
3.874280188,I2C,Setup Read to [0x0C] + NAK,,,,,,,,
3.91331526,I2C,Setup Write to [0x69] + ACK,,,,,,,,
3.913343028,I2C,0x7F + ACK,,,,,,,,
3.913370216,I2C,0x00 + ACK,,,,,,,,
3.9134284,I2C,Setup Write to [0x69] + ACK,,,,,,,,
3.91345616,I2C,0x1A + ACK,,,,,,,,
3.9134901,I2C,Setup Read to [0x69] + ACK,,,,,,,,
3.913516792,I2C,0x01 + NAK,,,,,,,,
3.913592408,I2C,Setup Write to [0x69] + ACK,,,,,,,,
3.913620176,I2C,0x7F + ACK,,,,,,,,
3.913647364,I2C,0x00 + ACK,,,,,,,,
3.91370548,I2C,Setup Write to [0x69] + ACK,,,,,,,,
3.913733184,I2C,0x2D + ACK,,,,,,,,
3.91376712,I2C,Setup Read to [0x69] + ACK,,,,,,,,
3.913793748,I2C,0xFE + ACK,,,,,,,,
3.913821504,I2C,0xC0 + ACK,,,,,,,,
3.913849252,I2C,0xFE + ACK,,,,,,,,
3.913877004,I2C,0xE8 + ACK,,,,,,,,
3.91390476,I2C,0x40 + ACK,,,,,,,,
3.913932512,I2C,0x80 + ACK,,,,,,,,
3.913960264,I2C,0xFF + ACK,,,,,,,,
3.91398802,I2C,0x31 + ACK,,,,,,,,
3.914015768,I2C,0xFF + ACK,,,,,,,,
3.914043524,I2C,0x43 + ACK,,,,,,,,
3.914071276,I2C,0x01 + ACK,,,,,,,,
3.914099028,I2C,0x53 + ACK,,,,,,,,
3.91412678,I2C,0x04 + ACK,,,,,,,,
3.914154592,I2C,0xE0 + NAK,,,,,,,,
3.914282652,I2C,Setup Write to [0x69] + ACK,,,,,,,,
3.914310416,I2C,0x7F + ACK,,,,,,,,
3.914337604,I2C,0x20 + ACK,,,,,,,,
3.914395724,I2C,Setup Write to [0x69] + ACK,,,,,,,,
3.914423488,I2C,0x14 + ACK,,,,,,,,
3.914457424,I2C,Setup Read to [0x69] + ACK,,,,,,,,
3.914484116,I2C,0x38 + NAK,,,,,,,,
3.914559672,I2C,Setup Write to [0x69] + ACK,,,,,,,,
3.914587376,I2C,0x7F + ACK,,,,,,,,
3.914614568,I2C,0x20 + ACK,,,,,,,,
3.91467268,I2C,Setup Write to [0x69] + ACK,,,,,,,,
3.914700448,I2C,0x01 + ACK,,,,,,,,
3.914734384,I2C,Setup Read to [0x69] + ACK,,,,,,,,
3.91476108,I2C,0x38 + NAK,,,,,,,,
3.914826632,I2C,Setup Write to [0x69] + ACK,,,,,,,,
3.914854396,I2C,0x15 + ACK,,,,,,,,
3.914888332,I2C,Setup Read to [0x69] + ACK,,,,,,,,
3.914915028,I2C,0x00 + NAK,,,,,,,,
3.914979396,I2C,Setup Write to [0x0C] + NAK,,,,,,,,
3.915030212,I2C,Setup Read to [0x0C] + NAK,,,,,,,,
3.954062792,I2C,Setup Write to [0x69] + ACK,,,,,,,,
3.954090492,I2C,0x7F + ACK,,,,,,,,
3.954117684,I2C,0x00 + ACK,,,,,,,,
3.954175864,I2C,Setup Write to [0x69] + ACK,,,,,,,,
3.954203628,I2C,0x1A + ACK,,,,,,,,
3.954237564,I2C,Setup Read to [0x69] + ACK,,,,,,,,
3.954264256,I2C,0x01 + NAK,,,,,,,,
3.954339876,I2C,Setup Write to [0x69] + ACK,,,,,,,,
3.95436764,I2C,0x7F + ACK,,,,,,,,
3.954394832,I2C,0x00 + ACK,,,,,,,,
3.954452948,I2C,Setup Write to [0x69] + ACK,,,,,,,,
3.954480648,I2C,0x2D + ACK,,,,,,,,
3.954514588,I2C,Setup Read to [0x69] + ACK,,,,,,,,
3.954541216,I2C,0xFF + ACK,,,,,,,,
3.954568972,I2C,0x28 + ACK,,,,,,,,
3.95459672,I2C,0xFF + ACK,,,,,,,,
3.954624472,I2C,0xD0 + ACK,,,,,,,,
3.954652228,I2C,0x40 + ACK,,,,,,,,
3.95467998,I2C,0x28 + ACK,,,,,,,,
3.954707732,I2C,0x00 + ACK,,,,,,,,
3.954735488,I2C,0x68 + ACK,,,,,,,,
3.954763236,I2C,0xFF + ACK,,,,,,,,
3.954790988,I2C,0xC5 + ACK,,,,,,,,
3.95481874,I2C,0xFF + ACK,,,,,,,,
3.954846492,I2C,0x9B + ACK,,,,,,,,
3.954874248,I2C,0x04 + ACK,,,,,,,,
3.954902056,I2C,0xF0 + NAK,,,,,,,,
3.955036368,I2C,Setup Write to [0x69] + ACK,,,,,,,,
3.955064132,I2C,0x7F + ACK,,,,,,,,
3.955091324,I2C,0x20 + ACK,,,,,,,,
3.95514944,I2C,Setup Write to [0x69] + ACK,,,,,,,,
3.955177204,I2C,0x14 + ACK,,,,,,,,
3.95521114,I2C,Setup Read to [0x69] + ACK,,,,,,,,
3.955237836,I2C,0x38 + NAK,,,,,,,,
3.955313388,I2C,Setup Write to [0x69] + ACK,,,,,,,,
3.955341092,I2C,0x7F + ACK,,,,,,,,
3.95536828,I2C,0x20 + ACK,,,,,,,,
3.9554264,I2C,Setup Write to [0x69] + ACK,,,,,,,,
3.955454164,I2C,0x01 + ACK,,,,,,,,
3.9554881,I2C,Setup Read to [0x69] + ACK,,,,,,,,
3.955514792,I2C,0x38 + NAK,,,,,,,,
3.955580348,I2C,Setup Write to [0x69] + ACK,,,,,,,,
3.955608116,I2C,0x15 + ACK,,,,,,,,
3.955642052,I2C,Setup Read to [0x69] + ACK,,,,,,,,
3.955668744,I2C,0x00 + NAK,,,,,,,,
3.955733112,I2C,Setup Write to [0x0C] + NAK,,,,,,,,
3.95577762,I2C,Setup Read to [0x0C] + NAK,,,,,,,,
3.994805196,I2C,Setup Write to [0x69] + ACK,,,,,,,,
3.99483296,I2C,0x7F + ACK,,,,,,,,
3.994860148,I2C,0x00 + ACK,,,,,,,,
3.99492458,I2C,Setup Write to [0x69] + ACK,,,,,,,,
3.994952344,I2C,0x1A + ACK,,,,,,,,
3.994986092,I2C,Setup Read to [0x69] + ACK,,,,,,,,
3.995012788,I2C,0x01 + NAK,,,,,,,,
3.995088404,I2C,Setup Write to [0x69] + ACK,,,,,,,,
3.995116168,I2C,0x7F + ACK,,,,,,,,
3.99514336,I2C,0x00 + ACK,,,,,,,,
3.995201476,I2C,Setup Write to [0x69] + ACK,,,,,,,,
3.995229176,I2C,0x2D + ACK,,,,,,,,
3.995263116,I2C,Setup Read to [0x69] + ACK,,,,,,,,
3.995289744,I2C,0xFF + ACK,,,,,,,,
3.9953175,I2C,0x50 + ACK,,,,,,,,
3.995345252,I2C,0xFF + ACK,,,,,,,,
3.995373004,I2C,0x00 + ACK,,,,,,,,
3.995400756,I2C,0x40 + ACK,,,,,,,,
3.995428512,I2C,0x20 + ACK,,,,,,,,
3.99545626,I2C,0xFE + ACK,,,,,,,,
3.995484012,I2C,0xB9 + ACK,,,,,,,,
3.995511768,I2C,0x00 + ACK,,,,,,,,
3.99553952,I2C,0x5A + ACK,,,,,,,,
3.995567268,I2C,0xFF + ACK,,,,,,,,
3.99559502,I2C,0x83 + ACK,,,,,,,,
3.995622776,I2C,0x04 + ACK,,,,,,,,
3.995650588,I2C,0x80 + NAK,,,,,,,,
3.995778708,I2C,Setup Write to [0x69] + ACK,,,,,,,,
3.995806472,I2C,0x7F + ACK,,,,,,,,
3.995833664,I2C,0x20 + ACK,,,,,,,,
3.99589178,I2C,Setup Write to [0x69] + ACK,,,,,,,,
3.995920732,I2C,0x14 + ACK,,,,,,,,
3.995954672,I2C,Setup Read to [0x69] + ACK,,,,,,,,
3.995981364,I2C,0x38 + NAK,,,,,,,,
3.996056916,I2C,Setup Write to [0x69] + ACK,,,,,,,,
3.99608462,I2C,0x7F + ACK,,,,,,,,
3.996111808,I2C,0x20 + ACK,,,,,,,,
3.996169928,I2C,Setup Write to [0x69] + ACK,,,,,,,,
3.996197692,I2C,0x01 + ACK,,,,,,,,
3.996231628,I2C,Setup Read to [0x69] + ACK,,,,,,,,
3.99625832,I2C,0x38 + NAK,,,,,,,,
3.996323876,I2C,Setup Write to [0x69] + ACK,,,,,,,,
3.996351644,I2C,0x15 + ACK,,,,,,,,
3.99638558,I2C,Setup Read to [0x69] + ACK,,,,,,,,
3.996412272,I2C,0x00 + NAK,,,,,,,,
3.99647664,I2C,Setup Write to [0x0C] + NAK,,,,,,,,
3.996521148,I2C,Setup Read to [0x0C] + NAK,,,,,,,,
4.035552472,I2C,Setup Write to [0x69] + ACK,,,,,,,,
4.03558024,I2C,0x7F + ACK,,,,,,,,
4.035607428,I2C,0x00 + ACK,,,,,,,,
4.035665608,I2C,Setup Write to [0x69] + ACK,,,,,,,,
4.035693372,I2C,0x1A + ACK,,,,,,,,
4.035727308,I2C,Setup Read to [0x69] + ACK,,,,,,,,
4.035754004,I2C,0x01 + NAK,,,,,,,,
4.03582962,I2C,Setup Write to [0x69] + ACK,,,,,,,,
4.035859888,I2C,0x7F + ACK,,,,,,,,
4.035887072,I2C,0x00 + ACK,,,,,,,,
4.035945256,I2C,Setup Write to [0x69] + ACK,,,,,,,,
4.035973016,I2C,0x2D + ACK,,,,,,,,
4.036006956,I2C,Setup Read to [0x69] + ACK,,,,,,,,
4.036033584,I2C,0xFF + ACK,,,,,,,,
4.03606134,I2C,0xC8 + ACK,,,,,,,,
4.036089092,I2C,0xFF + ACK,,,,,,,,
4.036116848,I2C,0x40 + ACK,,,,,,,,
4.0361446,I2C,0x40 + ACK,,,,,,,,
4.036172348,I2C,0x98 + ACK,,,,,,,,
4.0362001,I2C,0xFE + ACK,,,,,,,,
4.036227852,I2C,0xB5 + ACK,,,,,,,,
4.036255608,I2C,0x00 + ACK,,,,,,,,
4.036283356,I2C,0x78 + ACK,,,,,,,,
4.036311108,I2C,0xFF + ACK,,,,,,,,
4.03633886,I2C,0xFE + ACK,,,,,,,,
4.036366612,I2C,0x05 + ACK,,,,,,,,
4.036394428,I2C,0x10 + NAK,,,,,,,,
4.036522548,I2C,Setup Write to [0x69] + ACK,,,,,,,,
4.036550316,I2C,0x7F + ACK,,,,,,,,
4.036577504,I2C,0x20 + ACK,,,,,,,,
4.03663562,I2C,Setup Write to [0x69] + ACK,,,,,,,,
4.036663388,I2C,0x14 + ACK,,,,,,,,
4.036697136,I2C,Setup Read to [0x69] + ACK,,,,,,,,
4.036723828,I2C,0x38 + NAK,,,,,,,,
4.036799384,I2C,Setup Write to [0x69] + ACK,,,,,,,,
4.036827088,I2C,0x7F + ACK,,,,,,,,
4.036854276,I2C,0x20 + ACK,,,,,,,,
4.036914392,I2C,Setup Write to [0x69] + ACK,,,,,,,,
4.036942156,I2C,0x01 + ACK,,,,,,,,
4.036976096,I2C,Setup Read to [0x69] + ACK,,,,,,,,
4.037002788,I2C,0x38 + NAK,,,,,,,,
4.03706834,I2C,Setup Write to [0x69] + ACK,,,,,,,,
4.037096108,I2C,0x15 + ACK,,,,,,,,
4.037130044,I2C,Setup Read to [0x69] + ACK,,,,,,,,
4.03715674,I2C,0x00 + NAK,,,,,,,,
4.037221108,I2C,Setup Write to [0x0C] + NAK,,,,,,,,
4.037265612,I2C,Setup Read to [0x0C] + NAK,,,,,,,,
4.076295624,I2C,Setup Write to [0x69] + ACK,,,,,,,,
4.076323392,I2C,0x7F + ACK,,,,,,,,
4.076350584,I2C,0x00 + ACK,,,,,,,,
4.07640876,I2C,Setup Write to [0x69] + ACK,,,,,,,,
4.076436528,I2C,0x1A + ACK,,,,,,,,
4.076470464,I2C,Setup Read to [0x69] + ACK,,,,,,,,
4.076497156,I2C,0x01 + NAK,,,,,,,,
4.076572772,I2C,Setup Write to [0x69] + ACK,,,,,,,,
4.076600536,I2C,0x7F + ACK,,,,,,,,
4.076627728,I2C,0x00 + ACK,,,,,,,,
4.076685844,I2C,Setup Write to [0x69] + ACK,,,,,,,,
4.076713544,I2C,0x2D + ACK,,,,,,,,
4.076747484,I2C,Setup Read to [0x69] + ACK,,,,,,,,
4.076774112,I2C,0xFF + ACK,,,,,,,,
4.076801868,I2C,0xF0 + ACK,,,,,,,,
4.07682962,I2C,0xFF + ACK,,,,,,,,
4.076857376,I2C,0x50 + ACK,,,,,,,,
4.076885124,I2C,0x41 + ACK,,,,,,,,
4.076912876,I2C,0x08 + ACK,,,,,,,,
4.076940628,I2C,0xFF + ACK,,,,,,,,
4.07696838,I2C,0x7D + ACK,,,,,,,,
4.076996132,I2C,0x00 + ACK,,,,,,,,
4.077023884,I2C,0xDA + ACK,,,,,,,,
4.077051636,I2C,0xFF + ACK,,,,,,,,
4.077079388,I2C,0x98 + ACK,,,,,,,,
4.07710714,I2C,0x04 + ACK,,,,,,,,
4.077134956,I2C,0xF0 + NAK,,,,,,,,
4.077263012,I2C,Setup Write to [0x69] + ACK,,,,,,,,
4.07729078,I2C,0x7F + ACK,,,,,,,,
4.077317968,I2C,0x20 + ACK,,,,,,,,
4.077376088,I2C,Setup Write to [0x69] + ACK,,,,,,,,
4.077403852,I2C,0x14 + ACK,,,,,,,,
4.077437788,I2C,Setup Read to [0x69] + ACK,,,,,,,,
4.07746448,I2C,0x38 + NAK,,,,,,,,
4.077540036,I2C,Setup Write to [0x69] + ACK,,,,,,,,
4.07756774,I2C,0x7F + ACK,,,,,,,,
4.077594928,I2C,0x20 + ACK,,,,,,,,
4.077653044,I2C,Setup Write to [0x69] + ACK,,,,,,,,
4.077680812,I2C,0x01 + ACK,,,,,,,,
4.077714748,I2C,Setup Read to [0x69] + ACK,,,,,,,,
4.07774144,I2C,0x38 + NAK,,,,,,,,
4.077806996,I2C,Setup Write to [0x69] + ACK,,,,,,,,
4.07783476,I2C,0x15 + ACK,,,,,,,,
4.077868508,I2C,Setup Read to [0x69] + ACK,,,,,,,,
4.077895204,I2C,0x00 + NAK,,,,,,,,
4.077959572,I2C,Setup Write to [0x0C] + NAK,,,,,,,,
4.07800408,I2C,Setup Read to [0x0C] + NAK,,,,,,,,
4.11703534,I2C,Setup Write to [0x69] + ACK,,,,,,,,
4.117063108,I2C,0x7F + ACK,,,,,,,,
4.117090296,I2C,0x00 + ACK,,,,,,,,
4.117148476,I2C,Setup Write to [0x69] + ACK,,,,,,,,
4.11717624,I2C,0x1A + ACK,,,,,,,,
4.117209988,I2C,Setup Read to [0x69] + ACK,,,,,,,,
4.117236684,I2C,0x01 + NAK,,,,,,,,
4.1173123,I2C,Setup Write to [0x69] + ACK,,,,,,,,
4.117340064,I2C,0x7F + ACK,,,,,,,,
4.117367256,I2C,0x00 + ACK,,,,,,,,
4.117425372,I2C,Setup Write to [0x69] + ACK,,,,,,,,
4.117453076,I2C,0x2D + ACK,,,,,,,,
4.117487012,I2C,Setup Read to [0x69] + ACK,,,,,,,,
4.11751364,I2C,0xFF + ACK,,,,,,,,
4.117541392,I2C,0xC8 + ACK,,,,,,,,
4.117569144,I2C,0xFF + ACK,,,,,,,,
4.1175969,I2C,0x48 + ACK,,,,,,,,
4.117624652,I2C,0x40 + ACK,,,,,,,,
4.117652404,I2C,0xF0 + ACK,,,,,,,,
4.117680156,I2C,0x00 + ACK,,,,,,,,
4.117707908,I2C,0xA4 + ACK,,,,,,,,
4.11773566,I2C,0x00 + ACK,,,,,,,,
4.117763412,I2C,0x0C + ACK,,,,,,,,
4.117791164,I2C,0x00 + ACK,,,,,,,,
4.117818916,I2C,0xD7 + ACK,,,,,,,,
4.117846672,I2C,0x04 + ACK,,,,,,,,
4.117874484,I2C,0xA0 + NAK,,,,,,,,
4.11800254,I2C,Setup Write to [0x69] + ACK,,,,,,,,
4.118030308,I2C,0x7F + ACK,,,,,,,,
4.1180575,I2C,0x20 + ACK,,,,,,,,
4.118115616,I2C,Setup Write to [0x69] + ACK,,,,,,,,
4.11814338,I2C,0x14 + ACK,,,,,,,,
4.118177316,I2C,Setup Read to [0x69] + ACK,,,,,,,,
4.118204008,I2C,0x38 + NAK,,,,,,,,
4.118279564,I2C,Setup Write to [0x69] + ACK,,,,,,,,
4.118307268,I2C,0x7F + ACK,,,,,,,,
4.118334456,I2C,0x20 + ACK,,,,,,,,
4.118392572,I2C,Setup Write to [0x69] + ACK,,,,,,,,
4.11842034,I2C,0x01 + ACK,,,,,,,,
4.118454276,I2C,Setup Read to [0x69] + ACK,,,,,,,,
4.118480968,I2C,0x38 + NAK,,,,,,,,
4.118546524,I2C,Setup Write to [0x69] + ACK,,,,,,,,
4.118574288,I2C,0x15 + ACK,,,,,,,,
4.118608224,I2C,Setup Read to [0x69] + ACK,,,,,,,,
4.118634916,I2C,0x00 + NAK,,,,,,,,
4.118699288,I2C,Setup Write to [0x0C] + NAK,,,,,,,,
4.118743792,I2C,Setup Read to [0x0C] + NAK,,,,,,,,
4.157775056,I2C,Setup Write to [0x69] + ACK,,,,,,,,
4.15780282,I2C,0x7F + ACK,,,,,,,,
4.157830008,I2C,0x00 + ACK,,,,,,,,
4.157888192,I2C,Setup Write to [0x69] + ACK,,,,,,,,
4.157915956,I2C,0x1A + ACK,,,,,,,,
4.157949704,I2C,Setup Read to [0x69] + ACK,,,,,,,,
4.157976396,I2C,0x01 + NAK,,,,,,,,
4.158052016,I2C,Setup Write to [0x69] + ACK,,,,,,,,
4.158079784,I2C,0x7F + ACK,,,,,,,,
4.158106972,I2C,0x00 + ACK,,,,,,,,
4.158165088,I2C,Setup Write to [0x69] + ACK,,,,,,,,
4.158192792,I2C,0x2D + ACK,,,,,,,,
4.158226728,I2C,Setup Read to [0x69] + ACK,,,,,,,,
4.158253356,I2C,0xFF + ACK,,,,,,,,
4.158281108,I2C,0x90 + ACK,,,,,,,,
4.158308864,I2C,0x00 + ACK,,,,,,,,
4.158336616,I2C,0x08 + ACK,,,,,,,,
4.158364368,I2C,0x41 + ACK,,,,,,,,
4.15839212,I2C,0x30 + ACK,,,,,,,,
4.158419868,I2C,0xFF + ACK,,,,,,,,
4.158447628,I2C,0x52 + ACK,,,,,,,,
4.158475376,I2C,0xFF + ACK,,,,,,,,
4.158503128,I2C,0x87 + ACK,,,,,,,,
4.15853088,I2C,0xFF + ACK,,,,,,,,
4.158558632,I2C,0xF7 + ACK,,,,,,,,
4.158586388,I2C,0x04 + ACK,,,,,,,,
4.1586142,I2C,0xD0 + NAK,,,,,,,,
4.15874232,I2C,Setup Write to [0x69] + ACK,,,,,,,,
4.158770024,I2C,0x7F + ACK,,,,,,,,
4.158797212,I2C,0x20 + ACK,,,,,,,,
4.158855332,I2C,Setup Write to [0x69] + ACK,,,,,,,,
4.158883096,I2C,0x14 + ACK,,,,,,,,
4.158917032,I2C,Setup Read to [0x69] + ACK,,,,,,,,
4.158943724,I2C,0x38 + NAK,,,,,,,,
4.15901928,I2C,Setup Write to [0x69] + ACK,,,,,,,,
4.159046984,I2C,0x7F + ACK,,,,,,,,
4.159074172,I2C,0x20 + ACK,,,,,,,,
4.159132288,I2C,Setup Write to [0x69] + ACK,,,,,,,,
4.159160052,I2C,0x01 + ACK,,,,,,,,
4.159193992,I2C,Setup Read to [0x69] + ACK,,,,,,,,
4.159220684,I2C,0x38 + NAK,,,,,,,,
4.15928624,I2C,Setup Write to [0x69] + ACK,,,,,,,,
4.159314004,I2C,0x15 + ACK,,,,,,,,
4.15934794,I2C,Setup Read to [0x69] + ACK,,,,,,,,
4.159374632,I2C,0x00 + NAK,,,,,,,,
4.159439004,I2C,Setup Write to [0x0C] + NAK,,,,,,,,
4.159483508,I2C,Setup Read to [0x0C] + NAK,,,,,,,,
4.198514772,I2C,Setup Write to [0x69] + ACK,,,,,,,,
4.198542476,I2C,0x7F + ACK,,,,,,,,
4.198569664,I2C,0x00 + ACK,,,,,,,,
4.198627844,I2C,Setup Write to [0x69] + ACK,,,,,,,,
4.198655608,I2C,0x1A + ACK,,,,,,,,
4.198694988,I2C,Setup Read to [0x69] + ACK,,,,,,,,
4.198721676,I2C,0x01 + NAK,,,,,,,,
4.198797292,I2C,Setup Write to [0x69] + ACK,,,,,,,,
4.19882506,I2C,0x7F + ACK,,,,,,,,
4.198852248,I2C,0x00 + ACK,,,,,,,,
4.198910368,I2C,Setup Write to [0x69] + ACK,,,,,,,,
4.198938068,I2C,0x2D + ACK,,,,,,,,
4.198972004,I2C,Setup Read to [0x69] + ACK,,,,,,,,
4.198998632,I2C,0xFF + ACK,,,,,,,,
4.199026388,I2C,0xC0 + ACK,,,,,,,,
4.19905414,I2C,0xFF + ACK,,,,,,,,
4.199081892,I2C,0xB0 + ACK,,,,,,,,
4.199109648,I2C,0x40 + ACK,,,,,,,,
4.199137396,I2C,0x90 + ACK,,,,,,,,
4.199165148,I2C,0xFF + ACK,,,,,,,,
4.199192904,I2C,0x83 + ACK,,,,,,,,
4.199220656,I2C,0x00 + ACK,,,,,,,,
4.199248408,I2C,0x22 + ACK,,,,,,,,
4.19927616,I2C,0xFF + ACK,,,,,,,,
4.199303912,I2C,0x12 + ACK,,,,,,,,
4.199331664,I2C,0x04 + ACK,,,,,,,,
4.199359476,I2C,0xB0 + NAK,,,,,,,,
4.1994876,I2C,Setup Write to [0x69] + ACK,,,,,,,,
4.199515364,I2C,0x7F + ACK,,,,,,,,
4.199542552,I2C,0x20 + ACK,,,,,,,,
4.199600672,I2C,Setup Write to [0x69] + ACK,,,,,,,,
4.199628436,I2C,0x14 + ACK,,,,,,,,
4.199662184,I2C,Setup Read to [0x69] + ACK,,,,,,,,
4.19968888,I2C,0x38 + NAK,,,,,,,,
4.199763244,I2C,Setup Write to [0x69] + ACK,,,,,,,,
4.199791012,I2C,0x7F + ACK,,,,,,,,
4.1998182,I2C,0x20 + ACK,,,,,,,,
4.19987632,I2C,Setup Write to [0x69] + ACK,,,,,,,,
4.199904084,I2C,0x01 + ACK,,,,,,,,
4.19993802,I2C,Setup Read to [0x69] + ACK,,,,,,,,
4.199964712,I2C,0x38 + NAK,,,,,,,,
4.200030268,I2C,Setup Write to [0x69] + ACK,,,,,,,,
4.200058032,I2C,0x15 + ACK,,,,,,,,
4.200091968,I2C,Setup Read to [0x69] + ACK,,,,,,,,
4.200118664,I2C,0x00 + NAK,,,,,,,,
4.200183032,I2C,Setup Write to [0x0C] + NAK,,,,,,,,
4.200227536,I2C,Setup Read to [0x0C] + NAK,,,,,,,,
4.2392563,I2C,Setup Write to [0x69] + ACK,,,,,,,,
4.239284068,I2C,0x7F + ACK,,,,,,,,
4.239311256,I2C,0x00 + ACK,,,,,,,,
4.239369436,I2C,Setup Write to [0x69] + ACK,,,,,,,,
4.2393972,I2C,0x1A + ACK,,,,,,,,
4.239430952,I2C,Setup Read to [0x69] + ACK,,,,,,,,
4.239457644,I2C,0x01 + NAK,,,,,,,,
4.23953326,I2C,Setup Write to [0x69] + ACK,,,,,,,,
4.239561024,I2C,0x7F + ACK,,,,,,,,
4.239588216,I2C,0x00 + ACK,,,,,,,,
4.239651092,I2C,Setup Write to [0x69] + ACK,,,,,,,,
4.239678848,I2C,0x2D + ACK,,,,,,,,
4.23971278,I2C,Setup Read to [0x69] + ACK,,,,,,,,
4.239739412,I2C,0xFF + ACK,,,,,,,,
4.239767164,I2C,0xB8 + ACK,,,,,,,,
4.23979492,I2C,0x00 + ACK,,,,,,,,
4.239822672,I2C,0x18 + ACK,,,,,,,,
4.239850428,I2C,0x40 + ACK,,,,,,,,
4.239878176,I2C,0x10 + ACK,,,,,,,,
4.239905928,I2C,0xFF + ACK,,,,,,,,
4.239933684,I2C,0x66 + ACK,,,,,,,,
4.239961436,I2C,0x00 + ACK,,,,,,,,
4.239989184,I2C,0x55 + ACK,,,,,,,,
4.24001694,I2C,0x00 + ACK,,,,,,,,
4.240044688,I2C,0xB9 + ACK,,,,,,,,
4.24007244,I2C,0x04 + ACK,,,,,,,,
4.240100252,I2C,0xD0 + NAK,,,,,,,,
4.240228376,I2C,Setup Write to [0x69] + ACK,,,,,,,,
4.240256144,I2C,0x7F + ACK,,,,,,,,
4.240283332,I2C,0x20 + ACK,,,,,,,,
4.240341448,I2C,Setup Write to [0x69] + ACK,,,,,,,,
4.240369216,I2C,0x14 + ACK,,,,,,,,
4.240402964,I2C,Setup Read to [0x69] + ACK,,,,,,,,
4.240429656,I2C,0x38 + NAK,,,,,,,,
4.240505212,I2C,Setup Write to [0x69] + ACK,,,,,,,,
4.240532912,I2C,0x7F + ACK,,,,,,,,
4.240560104,I2C,0x20 + ACK,,,,,,,,
4.24061822,I2C,Setup Write to [0x69] + ACK,,,,,,,,
4.240645984,I2C,0x01 + ACK,,,,,,,,
4.240682236,I2C,Setup Read to [0x69] + ACK,,,,,,,,
4.240708924,I2C,0x38 + NAK,,,,,,,,
4.24077448,I2C,Setup Write to [0x69] + ACK,,,,,,,,
4.240802248,I2C,0x15 + ACK,,,,,,,,
4.240836184,I2C,Setup Read to [0x69] + ACK,,,,,,,,
4.240862876,I2C,0x00 + NAK,,,,,,,,
4.240927244,I2C,Setup Write to [0x0C] + NAK,,,,,,,,
4.240971756,I2C,Setup Read to [0x0C] + NAK,,,,,,,,
4.28000058,I2C,Setup Write to [0x69] + ACK,,,,,,,,
4.280028344,I2C,0x7F + ACK,,,,,,,,
4.280055532,I2C,0x00 + ACK,,,,,,,,
4.280113712,I2C,Setup Write to [0x69] + ACK,,,,,,,,
4.280141476,I2C,0x1A + ACK,,,,,,,,
4.280175228,I2C,Setup Read to [0x69] + ACK,,,,,,,,
4.28020192,I2C,0x01 + NAK,,,,,,,,
4.280277536,I2C,Setup Write to [0x69] + ACK,,,,,,,,
4.280305304,I2C,0x7F + ACK,,,,,,,,
4.280332492,I2C,0x00 + ACK,,,,,,,,
4.280390612,I2C,Setup Write to [0x69] + ACK,,,,,,,,
4.280418312,I2C,0x2D + ACK,,,,,,,,
4.280452248,I2C,Setup Read to [0x69] + ACK,,,,,,,,
4.28047888,I2C,0xFF + ACK,,,,,,,,
4.280506632,I2C,0xE8 + ACK,,,,,,,,
4.280534384,I2C,0xFF + ACK,,,,,,,,
4.28056214,I2C,0xF0 + ACK,,,,,,,,
4.280589892,I2C,0x40 + ACK,,,,,,,,
4.280617644,I2C,0x60 + ACK,,,,,,,,
4.280645392,I2C,0xFF + ACK,,,,,,,,
4.280673144,I2C,0xFE + ACK,,,,,,,,
4.280700896,I2C,0xFF + ACK,,,,,,,,
4.280728652,I2C,0x07 + ACK,,,,,,,,
4.2807564,I2C,0xFF + ACK,,,,,,,,
4.280784152,I2C,0xAB + ACK,,,,,,,,
4.280811908,I2C,0x04 + ACK,,,,,,,,
4.28083972,I2C,0xF0 + NAK,,,,,,,,
4.28096778,I2C,Setup Write to [0x69] + ACK,,,,,,,,
4.280995548,I2C,0x7F + ACK,,,,,,,,
4.281022736,I2C,0x20 + ACK,,,,,,,,
4.281080852,I2C,Setup Write to [0x69] + ACK,,,,,,,,
4.281108616,I2C,0x14 + ACK,,,,,,,,
4.281142556,I2C,Setup Read to [0x69] + ACK,,,,,,,,
4.281169248,I2C,0x38 + NAK,,,,,,,,
4.281244804,I2C,Setup Write to [0x69] + ACK,,,,,,,,
4.281272504,I2C,0x7F + ACK,,,,,,,,
4.281299692,I2C,0x20 + ACK,,,,,,,,
4.281357812,I2C,Setup Write to [0x69] + ACK,,,,,,,,
4.281385576,I2C,0x01 + ACK,,,,,,,,
4.281419512,I2C,Setup Read to [0x69] + ACK,,,,,,,,
4.281446208,I2C,0x38 + NAK,,,,,,,,
4.28151176,I2C,Setup Write to [0x69] + ACK,,,,,,,,
4.281539524,I2C,0x15 + ACK,,,,,,,,
4.28157346,I2C,Setup Read to [0x69] + ACK,,,,,,,,
4.281600156,I2C,0x00 + NAK,,,,,,,,
4.281670776,I2C,Setup Write to [0x0C] + NAK,,,,,,,,
4.281715344,I2C,Setup Read to [0x0C] + NAK,,,,,,,,
4.320749168,I2C,Setup Write to [0x69] + ACK,,,,,,,,
4.320776936,I2C,0x7F + ACK,,,,,,,,
4.320804124,I2C,0x00 + ACK,,,,,,,,
4.320862304,I2C,Setup Write to [0x69] + ACK,,,,,,,,
4.320890068,I2C,0x1A + ACK,,,,,,,,
4.320924004,I2C,Setup Read to [0x69] + ACK,,,,,,,,
4.320950696,I2C,0x01 + NAK,,,,,,,,
4.321026316,I2C,Setup Write to [0x69] + ACK,,,,,,,,
4.32105408,I2C,0x7F + ACK,,,,,,,,
4.321081272,I2C,0x00 + ACK,,,,,,,,
4.321139388,I2C,Setup Write to [0x69] + ACK,,,,,,,,
4.321167092,I2C,0x2D + ACK,,,,,,,,
4.321201028,I2C,Setup Read to [0x69] + ACK,,,,,,,,
4.321227656,I2C,0xFF + ACK,,,,,,,,
4.321255412,I2C,0x90 + ACK,,,,,,,,
4.321283164,I2C,0xFF + ACK,,,,,,,,
4.321310916,I2C,0x68 + ACK,,,,,,,,
4.321338668,I2C,0x40 + ACK,,,,,,,,
4.321366416,I2C,0xD0 + ACK,,,,,,,,
4.321394172,I2C,0x00 + ACK,,,,,,,,
4.321421924,I2C,0x12 + ACK,,,,,,,,
4.321449676,I2C,0xFE + ACK,,,,,,,,
4.321477428,I2C,0xE1 + ACK,,,,,,,,
4.32150518,I2C,0x00 + ACK,,,,,,,,
4.321532932,I2C,0x9E + ACK,,,,,,,,
4.321560688,I2C,0x04 + ACK,,,,,,,,
4.3215885,I2C,0xA0 + NAK,,,,,,,,
4.321716556,I2C,Setup Write to [0x69] + ACK,,,,,,,,
4.321744324,I2C,0x7F + ACK,,,,,,,,
4.321771512,I2C,0x20 + ACK,,,,,,,,
4.321829632,I2C,Setup Write to [0x69] + ACK,,,,,,,,
4.321857396,I2C,0x14 + ACK,,,,,,,,
4.321891332,I2C,Setup Read to [0x69] + ACK,,,,,,,,
4.321918024,I2C,0x38 + NAK,,,,,,,,
4.32199358,I2C,Setup Write to [0x69] + ACK,,,,,,,,
4.322021284,I2C,0x7F + ACK,,,,,,,,
4.322048472,I2C,0x20 + ACK,,,,,,,,
4.322106588,I2C,Setup Write to [0x69] + ACK,,,,,,,,
4.322134356,I2C,0x01 + ACK,,,,,,,,
4.322168292,I2C,Setup Read to [0x69] + ACK,,,,,,,,
4.322194984,I2C,0x38 + NAK,,,,,,,,
4.32226054,I2C,Setup Write to [0x69] + ACK,,,,,,,,
4.322288304,I2C,0x15 + ACK,,,,,,,,
4.32232224,I2C,Setup Read to [0x69] + ACK,,,,,,,,
4.322348936,I2C,0x00 + NAK,,,,,,,,
4.322413304,I2C,Setup Write to [0x0C] + NAK,,,,,,,,
4.322457808,I2C,Setup Read to [0x0C] + NAK,,,,,,,,
4.361490384,I2C,Setup Write to [0x69] + ACK,,,,,,,,
4.361518088,I2C,0x7F + ACK,,,,,,,,
4.361545276,I2C,0x00 + ACK,,,,,,,,
4.36160346,I2C,Setup Write to [0x69] + ACK,,,,,,,,
4.36163122,I2C,0x1A + ACK,,,,,,,,
4.36166516,I2C,Setup Read to [0x69] + ACK,,,,,,,,
4.361691852,I2C,0x01 + NAK,,,,,,,,
4.361767472,I2C,Setup Write to [0x69] + ACK,,,,,,,,
4.361795236,I2C,0x7F + ACK,,,,,,,,
4.361822424,I2C,0x00 + ACK,,,,,,,,
4.36188054,I2C,Setup Write to [0x69] + ACK,,,,,,,,
4.361908244,I2C,0x2D + ACK,,,,,,,,
4.36194218,I2C,Setup Read to [0x69] + ACK,,,,,,,,
4.361968812,I2C,0xFF + ACK,,,,,,,,
4.361996564,I2C,0x80 + ACK,,,,,,,,
4.362024316,I2C,0xFF + ACK,,,,,,,,
4.362052068,I2C,0xC8 + ACK,,,,,,,,
4.362079824,I2C,0x40 + ACK,,,,,,,,
4.362107572,I2C,0xB8 + ACK,,,,,,,,
4.362135324,I2C,0xFF + ACK,,,,,,,,
4.362163076,I2C,0x01 + ACK,,,,,,,,
4.362190828,I2C,0xFF + ACK,,,,,,,,
4.362218584,I2C,0x1F + ACK,,,,,,,,
4.362246336,I2C,0x01 + ACK,,,,,,,,
4.362274088,I2C,0x29 + ACK,,,,,,,,
4.36230184,I2C,0x04 + ACK,,,,,,,,
4.362329652,I2C,0xD0 + NAK,,,,,,,,
4.362457772,I2C,Setup Write to [0x69] + ACK,,,,,,,,
4.36248554,I2C,0x7F + ACK,,,,,,,,
4.362512728,I2C,0x20 + ACK,,,,,,,,
4.362572036,I2C,Setup Write to [0x69] + ACK,,,,,,,,
4.362599796,I2C,0x14 + ACK,,,,,,,,
4.362633736,I2C,Setup Read to [0x69] + ACK,,,,,,,,
4.362660428,I2C,0x38 + NAK,,,,,,,,
4.362735984,I2C,Setup Write to [0x69] + ACK,,,,,,,,
4.362763688,I2C,0x7F + ACK,,,,,,,,
4.362790876,I2C,0x20 + ACK,,,,,,,,
4.362848992,I2C,Setup Write to [0x69] + ACK,,,,,,,,
4.36287676,I2C,0x01 + ACK,,,,,,,,
4.362910696,I2C,Setup Read to [0x69] + ACK,,,,,,,,
4.362937388,I2C,0x38 + NAK,,,,,,,,
4.363002944,I2C,Setup Write to [0x69] + ACK,,,,,,,,
4.363030708,I2C,0x15 + ACK,,,,,,,,
4.363064644,I2C,Setup Read to [0x69] + ACK,,,,,,,,
4.363091336,I2C,0x00 + NAK,,,,,,,,
4.363155704,I2C,Setup Write to [0x0C] + NAK,,,,,,,,
4.363200212,I2C,Setup Read to [0x0C] + NAK,,,,,,,,
4.402228976,I2C,Setup Write to [0x69] + ACK,,,,,,,,
4.40225674,I2C,0x7F + ACK,,,,,,,,
4.402283928,I2C,0x00 + ACK,,,,,,,,
4.402342112,I2C,Setup Write to [0x69] + ACK,,,,,,,,
4.402369876,I2C,0x1A + ACK,,,,,,,,
4.402403624,I2C,Setup Read to [0x69] + ACK,,,,,,,,
4.402430312,I2C,0x01 + NAK,,,,,,,,
4.402510932,I2C,Setup Write to [0x69] + ACK,,,,,,,,
4.4025387,I2C,0x7F + ACK,,,,,,,,
4.402565888,I2C,0x00 + ACK,,,,,,,,
4.402624068,I2C,Setup Write to [0x69] + ACK,,,,,,,,
4.402651836,I2C,0x2D + ACK,,,,,,,,
4.402685772,I2C,Setup Read to [0x69] + ACK,,,,,,,,
4.4027124,I2C,0xFF + ACK,,,,,,,,
4.402740152,I2C,0x98 + ACK,,,,,,,,
4.402767908,I2C,0xFF + ACK,,,,,,,,
4.402795656,I2C,0xA0 + ACK,,,,,,,,
4.402823412,I2C,0x41 + ACK,,,,,,,,
4.402851164,I2C,0x18 + ACK,,,,,,,,
4.402878916,I2C,0xFE + ACK,,,,,,,,
4.402906668,I2C,0xD7 + ACK,,,,,,,,
4.40293442,I2C,0xFF + ACK,,,,,,,,
4.402962172,I2C,0xB8 + ACK,,,,,,,,
4.402989924,I2C,0xFF + ACK,,,,,,,,
4.403017676,I2C,0x9B + ACK,,,,,,,,
4.403045432,I2C,0x04 + ACK,,,,,,,,
4.403073244,I2C,0xA0 + NAK,,,,,,,,
4.403201364,I2C,Setup Write to [0x69] + ACK,,,,,,,,
4.403229128,I2C,0x7F + ACK,,,,,,,,
4.40325632,I2C,0x20 + ACK,,,,,,,,
4.403314436,I2C,Setup Write to [0x69] + ACK,,,,,,,,
4.403342204,I2C,0x14 + ACK,,,,,,,,
4.403375952,I2C,Setup Read to [0x69] + ACK,,,,,,,,
4.403402644,I2C,0x38 + NAK,,,,,,,,
4.4034782,I2C,Setup Write to [0x69] + ACK,,,,,,,,
4.403505904,I2C,0x7F + ACK,,,,,,,,
4.403533092,I2C,0x20 + ACK,,,,,,,,
4.403591208,I2C,Setup Write to [0x69] + ACK,,,,,,,,
4.403618972,I2C,0x01 + ACK,,,,,,,,
4.403652724,I2C,Setup Read to [0x69] + ACK,,,,,,,,
4.403679412,I2C,0x38 + NAK,,,,,,,,
4.403744972,I2C,Setup Write to [0x69] + ACK,,,,,,,,
4.403772736,I2C,0x15 + ACK,,,,,,,,
4.403806672,I2C,Setup Read to [0x69] + ACK,,,,,,,,
4.403833364,I2C,0x00 + NAK,,,,,,,,
4.403897732,I2C,Setup Write to [0x0C] + NAK,,,,,,,,
4.40394224,I2C,Setup Read to [0x0C] + NAK,,,,,,,,
4.442974752,I2C,Setup Write to [0x69] + ACK,,,,,,,,
4.443002516,I2C,0x7F + ACK,,,,,,,,
4.443029708,I2C,0x00 + ACK,,,,,,,,
4.443087888,I2C,Setup Write to [0x69] + ACK,,,,,,,,
4.443115652,I2C,0x1A + ACK,,,,,,,,
4.4431494,I2C,Setup Read to [0x69] + ACK,,,,,,,,
4.443176096,I2C,0x01 + NAK,,,,,,,,
4.443251712,I2C,Setup Write to [0x69] + ACK,,,,,,,,
4.44327948,I2C,0x7F + ACK,,,,,,,,
4.443306668,I2C,0x00 + ACK,,,,,,,,
4.443364784,I2C,Setup Write to [0x69] + ACK,,,,,,,,
4.443392488,I2C,0x2D + ACK,,,,,,,,
4.443426424,I2C,Setup Read to [0x69] + ACK,,,,,,,,
4.443453052,I2C,0xFE + ACK,,,,,,,,
4.443480804,I2C,0xF0 + ACK,,,,,,,,
4.443508564,I2C,0x00 + ACK,,,,,,,,
4.443536316,I2C,0x68 + ACK,,,,,,,,
4.443564068,I2C,0x40 + ACK,,,,,,,,
4.443591816,I2C,0xA0 + ACK,,,,,,,,
4.443619568,I2C,0xFF + ACK,,,,,,,,
4.443647324,I2C,0x10 + ACK,,,,,,,,
4.443675072,I2C,0xFF + ACK,,,,,,,,
4.443702824,I2C,0x84 + ACK,,,,,,,,
4.443730576,I2C,0xFE + ACK,,,,,,,,
4.443758328,I2C,0xF6 + ACK,,,,,,,,
4.443786084,I2C,0x04 + ACK,,,,,,,,
4.443813896,I2C,0xF0 + NAK,,,,,,,,
4.443941956,I2C,Setup Write to [0x69] + ACK,,,,,,,,
4.44396972,I2C,0x7F + ACK,,,,,,,,
4.443996912,I2C,0x20 + ACK,,,,,,,,
4.444055028,I2C,Setup Write to [0x69] + ACK,,,,,,,,
4.444082792,I2C,0x14 + ACK,,,,,,,,
4.444116728,I2C,Setup Read to [0x69] + ACK,,,,,,,,
4.444143424,I2C,0x38 + NAK,,,,,,,,
4.444218976,I2C,Setup Write to [0x69] + ACK,,,,,,,,
4.44424668,I2C,0x7F + ACK,,,,,,,,
4.444273868,I2C,0x20 + ACK,,,,,,,,
4.444331988,I2C,Setup Write to [0x69] + ACK,,,,,,,,
4.444359752,I2C,0x01 + ACK,,,,,,,,
4.444393688,I2C,Setup Read to [0x69] + ACK,,,,,,,,
4.44442038,I2C,0x38 + NAK,,,,,,,,
4.444492184,I2C,Setup Write to [0x69] + ACK,,,,,,,,
4.444519952,I2C,0x15 + ACK,,,,,,,,
4.4445537,I2C,Setup Read to [0x69] + ACK,,,,,,,,
4.444580396,I2C,0x00 + NAK,,,,,,,,
4.44464476,I2C,Setup Write to [0x0C] + NAK,,,,,,,,
4.444689268,I2C,Setup Read to [0x0C] + NAK,,,,,,,,
4.483724344,I2C,Setup Write to [0x69] + ACK,,,,,,,,
4.483752112,I2C,0x7F + ACK,,,,,,,,
4.4837793,I2C,0x00 + ACK,,,,,,,,
4.48383748,I2C,Setup Write to [0x69] + ACK,,,,,,,,
4.483865244,I2C,0x1A + ACK,,,,,,,,
4.48389918,I2C,Setup Read to [0x69] + ACK,,,,,,,,
4.483925876,I2C,0x01 + NAK,,,,,,,,
4.484001492,I2C,Setup Write to [0x69] + ACK,,,,,,,,
4.484029256,I2C,0x7F + ACK,,,,,,,,
4.484056448,I2C,0x00 + ACK,,,,,,,,
4.484114564,I2C,Setup Write to [0x69] + ACK,,,,,,,,
4.484142268,I2C,0x2D + ACK,,,,,,,,
4.484176204,I2C,Setup Read to [0x69] + ACK,,,,,,,,
4.484202832,I2C,0xFF + ACK,,,,,,,,
4.484230588,I2C,0x70 + ACK,,,,,,,,
4.484258336,I2C,0xFF + ACK,,,,,,,,
4.484286092,I2C,0x98 + ACK,,,,,,,,
4.484313844,I2C,0x40 + ACK,,,,,,,,
4.484341596,I2C,0xD8 + ACK,,,,,,,,
4.484369344,I2C,0xFF + ACK,,,,,,,,
4.4843971,I2C,0xDB + ACK,,,,,,,,
4.484424852,I2C,0xFF + ACK,,,,,,,,
4.484452604,I2C,0xC1 + ACK,,,,,,,,
4.484480356,I2C,0x01 + ACK,,,,,,,,
4.484508108,I2C,0x9B + ACK,,,,,,,,
4.48453586,I2C,0x04 + ACK,,,,,,,,
4.484563672,I2C,0x80 + NAK,,,,,,,,
4.484691732,I2C,Setup Write to [0x69] + ACK,,,,,,,,
4.4847195,I2C,0x7F + ACK,,,,,,,,
4.484746688,I2C,0x20 + ACK,,,,,,,,
4.484804804,I2C,Setup Write to [0x69] + ACK,,,,,,,,
4.484832572,I2C,0x14 + ACK,,,,,,,,
4.484866508,I2C,Setup Read to [0x69] + ACK,,,,,,,,
4.4848932,I2C,0x38 + NAK,,,,,,,,
4.484968756,I2C,Setup Write to [0x69] + ACK,,,,,,,,
4.48499646,I2C,0x7F + ACK,,,,,,,,
4.485023648,I2C,0x20 + ACK,,,,,,,,
4.485081764,I2C,Setup Write to [0x69] + ACK,,,,,,,,
4.485109528,I2C,0x01 + ACK,,,,,,,,
4.485143468,I2C,Setup Read to [0x69] + ACK,,,,,,,,
4.48517016,I2C,0x38 + NAK,,,,,,,,
4.485235712,I2C,Setup Write to [0x69] + ACK,,,,,,,,
4.48526348,I2C,0x15 + ACK,,,,,,,,
4.485297416,I2C,Setup Read to [0x69] + ACK,,,,,,,,
4.485324112,I2C,0x00 + NAK,,,,,,,,
4.48538848,I2C,Setup Write to [0x0C] + NAK,,,,,,,,
4.485439296,I2C,Setup Read to [0x0C] + NAK,,,,,,,,
4.524473124,I2C,Setup Write to [0x69] + ACK,,,,,,,,
4.524500888,I2C,0x7F + ACK,,,,,,,,
4.52452808,I2C,0x00 + ACK,,,,,,,,
4.524586256,I2C,Setup Write to [0x69] + ACK,,,,,,,,
4.524614024,I2C,0x1A + ACK,,,,,,,,
4.52464796,I2C,Setup Read to [0x69] + ACK,,,,,,,,
4.524674652,I2C,0x01 + NAK,,,,,,,,
4.524750272,I2C,Setup Write to [0x69] + ACK,,,,,,,,
4.524778036,I2C,0x7F + ACK,,,,,,,,
4.524805224,I2C,0x00 + ACK,,,,,,,,
4.52486334,I2C,Setup Write to [0x69] + ACK,,,,,,,,
4.524891044,I2C,0x2D + ACK,,,,,,,,
4.52492498,I2C,Setup Read to [0x69] + ACK,,,,,,,,
4.524951612,I2C,0xFF + ACK,,,,,,,,
4.524979368,I2C,0x00 + ACK,,,,,,,,
4.525007116,I2C,0xFF + ACK,,,,,,,,
4.525034868,I2C,0xB8 + ACK,,,,,,,,
4.525062624,I2C,0x40 + ACK,,,,,,,,
4.525090376,I2C,0x30 + ACK,,,,,,,,
4.525118128,I2C,0x00 + ACK,,,,,,,,
4.52514588,I2C,0x3C + ACK,,,,,,,,
4.525173628,I2C,0xFF + ACK,,,,,,,,
4.525201384,I2C,0x71 + ACK,,,,,,,,
4.525229132,I2C,0xFF + ACK,,,,,,,,
4.525256888,I2C,0xA2 + ACK,,,,,,,,
4.52528464,I2C,0x04 + ACK,,,,,,,,
4.525312452,I2C,0xD0 + NAK,,,,,,,,
4.52544676,I2C,Setup Write to [0x69] + ACK,,,,,,,,
4.525474528,I2C,0x7F + ACK,,,,,,,,
4.525501716,I2C,0x20 + ACK,,,,,,,,
4.525559836,I2C,Setup Write to [0x69] + ACK,,,,,,,,
4.5255876,I2C,0x14 + ACK,,,,,,,,
4.525621536,I2C,Setup Read to [0x69] + ACK,,,,,,,,
4.525648228,I2C,0x38 + NAK,,,,,,,,
4.525723784,I2C,Setup Write to [0x69] + ACK,,,,,,,,
4.525751488,I2C,0x7F + ACK,,,,,,,,
4.525778676,I2C,0x20 + ACK,,,,,,,,
4.525836792,I2C,Setup Write to [0x69] + ACK,,,,,,,,
4.525864556,I2C,0x01 + ACK,,,,,,,,
4.525898496,I2C,Setup Read to [0x69] + ACK,,,,,,,,
4.525925188,I2C,0x38 + NAK,,,,,,,,
4.525990744,I2C,Setup Write to [0x69] + ACK,,,,,,,,
4.526018508,I2C,0x15 + ACK,,,,,,,,
4.526052444,I2C,Setup Read to [0x69] + ACK,,,,,,,,
4.526079136,I2C,0x00 + NAK,,,,,,,,
4.526143508,I2C,Setup Write to [0x0C] + NAK,,,,,,,,
4.526188012,I2C,Setup Read to [0x0C] + NAK,,,,,,,,
4.565220588,I2C,Setup Write to [0x69] + ACK,,,,,,,,
4.565248356,I2C,0x7F + ACK,,,,,,,,
4.565275544,I2C,0x00 + ACK,,,,,,,,
4.565339912,I2C,Setup Write to [0x69] + ACK,,,,,,,,
4.565367676,I2C,0x1A + ACK,,,,,,,,
4.565401612,I2C,Setup Read to [0x69] + ACK,,,,,,,,
4.565428304,I2C,0x01 + NAK,,,,,,,,
4.565503924,I2C,Setup Write to [0x69] + ACK,,,,,,,,
4.565531688,I2C,0x7F + ACK,,,,,,,,
4.56555888,I2C,0x00 + ACK,,,,,,,,
4.565616996,I2C,Setup Write to [0x69] + ACK,,,,,,,,
4.5656447,I2C,0x2D + ACK,,,,,,,,
4.565678636,I2C,Setup Read to [0x69] + ACK,,,,,,,,
4.565705264,I2C,0xFF + ACK,,,,,,,,
4.56573302,I2C,0x78 + ACK,,,,,,,,
4.565760772,I2C,0x00 + ACK,,,,,,,,
4.56578852,I2C,0x80 + ACK,,,,,,,,
4.565816276,I2C,0x40 + ACK,,,,,,,,
4.565844028,I2C,0x40 + ACK,,,,,,,,
4.56587178,I2C,0x01 + ACK,,,,,,,,
4.565899532,I2C,0x2C + ACK,,,,,,,,
4.565927284,I2C,0xFE + ACK,,,,,,,,
4.565955036,I2C,0xD6 + ACK,,,,,,,,
4.565982788,I2C,0xFF + ACK,,,,,,,,
4.56601054,I2C,0xE5 + ACK,,,,,,,,
4.566038296,I2C,0x05 + ACK,,,,,,,,
4.566066112,I2C,0x10 + NAK,,,,,,,,
4.566194228,I2C,Setup Write to [0x69] + ACK,,,,,,,,
4.566221992,I2C,0x7F + ACK,,,,,,,,
4.566249184,I2C,0x20 + ACK,,,,,,,,
4.5663073,I2C,Setup Write to [0x69] + ACK,,,,,,,,
4.566335004,I2C,0x14 + ACK,,,,,,,,
4.56636894,I2C,Setup Read to [0x69] + ACK,,,,,,,,
4.566395632,I2C,0x38 + NAK,,,,,,,,
4.566471188,I2C,Setup Write to [0x69] + ACK,,,,,,,,
4.566498892,I2C,0x7F + ACK,,,,,,,,
4.56652608,I2C,0x20 + ACK,,,,,,,,
4.566584196,I2C,Setup Write to [0x69] + ACK,,,,,,,,
4.566611964,I2C,0x01 + ACK,,,,,,,,
4.5666459,I2C,Setup Read to [0x69] + ACK,,,,,,,,
4.566672592,I2C,0x38 + NAK,,,,,,,,
4.566738148,I2C,Setup Write to [0x69] + ACK,,,,,,,,
4.566765912,I2C,0x15 + ACK,,,,,,,,
4.566799848,I2C,Setup Read to [0x69] + ACK,,,,,,,,
4.56682654,I2C,0x00 + NAK,,,,,,,,
4.566890912,I2C,Setup Write to [0x0C] + NAK,,,,,,,,
4.566935416,I2C,Setup Read to [0x0C] + NAK,,,,,,,,
4.605967928,I2C,Setup Write to [0x69] + ACK,,,,,,,,
4.605995696,I2C,0x7F + ACK,,,,,,,,
4.606022884,I2C,0x00 + ACK,,,,,,,,
4.606081064,I2C,Setup Write to [0x69] + ACK,,,,,,,,
4.606108828,I2C,0x1A + ACK,,,,,,,,
4.606142764,I2C,Setup Read to [0x69] + ACK,,,,,,,,
4.60616946,I2C,0x01 + NAK,,,,,,,,
4.606245076,I2C,Setup Write to [0x69] + ACK,,,,,,,,
4.606272968,I2C,0x7F + ACK,,,,,,,,
4.606300156,I2C,0x00 + ACK,,,,,,,,
4.606358272,I2C,Setup Write to [0x69] + ACK,,,,,,,,
4.606385976,I2C,0x2D + ACK,,,,,,,,
4.606419912,I2C,Setup Read to [0x69] + ACK,,,,,,,,
4.60644654,I2C,0xFF + ACK,,,,,,,,
4.606474296,I2C,0xB0 + ACK,,,,,,,,
4.606502048,I2C,0xFF + ACK,,,,,,,,
4.6065298,I2C,0xC8 + ACK,,,,,,,,
4.606557552,I2C,0x40 + ACK,,,,,,,,
4.606585304,I2C,0xF8 + ACK,,,,,,,,
4.606613056,I2C,0xFE + ACK,,,,,,,,
4.606640808,I2C,0xB8 + ACK,,,,,,,,
4.606668568,I2C,0x00 + ACK,,,,,,,,
4.606696316,I2C,0x95 + ACK,,,,,,,,
4.606724064,I2C,0xFF + ACK,,,,,,,,
4.60675182,I2C,0x77 + ACK,,,,,,,,
4.606779572,I2C,0x04 + ACK,,,,,,,,
4.606807384,I2C,0xE0 + NAK,,,,,,,,
4.606935504,I2C,Setup Write to [0x69] + ACK,,,,,,,,
4.606963272,I2C,0x7F + ACK,,,,,,,,
4.60699046,I2C,0x20 + ACK,,,,,,,,
4.60704858,I2C,Setup Write to [0x69] + ACK,,,,,,,,
4.607076344,I2C,0x14 + ACK,,,,,,,,
4.607110092,I2C,Setup Read to [0x69] + ACK,,,,,,,,
4.607136788,I2C,0x38 + NAK,,,,,,,,
4.60721234,I2C,Setup Write to [0x69] + ACK,,,,,,,,
4.607240044,I2C,0x7F + ACK,,,,,,,,
4.607267232,I2C,0x20 + ACK,,,,,,,,
4.607327352,I2C,Setup Write to [0x69] + ACK,,,,,,,,
4.607355116,I2C,0x01 + ACK,,,,,,,,
4.607389052,I2C,Setup Read to [0x69] + ACK,,,,,,,,
4.607415744,I2C,0x38 + NAK,,,,,,,,
4.6074813,I2C,Setup Write to [0x69] + ACK,,,,,,,,
4.607509064,I2C,0x15 + ACK,,,,,,,,
4.607543,I2C,Setup Read to [0x69] + ACK,,,,,,,,
4.607569696,I2C,0x00 + NAK,,,,,,,,
4.607634064,I2C,Setup Write to [0x0C] + NAK,,,,,,,,
4.607678568,I2C,Setup Read to [0x0C] + NAK,,,,,,,,
4.646711144,I2C,Setup Write to [0x69] + ACK,,,,,,,,
4.646738912,I2C,0x7F + ACK,,,,,,,,
4.6467661,I2C,0x00 + ACK,,,,,,,,
4.64682428,I2C,Setup Write to [0x69] + ACK,,,,,,,,
4.646852048,I2C,0x1A + ACK,,,,,,,,
4.646885792,I2C,Setup Read to [0x69] + ACK,,,,,,,,
4.646912488,I2C,0x01 + NAK,,,,,,,,
4.646988104,I2C,Setup Write to [0x69] + ACK,,,,,,,,
4.647015868,I2C,0x7F + ACK,,,,,,,,
4.64704306,I2C,0x00 + ACK,,,,,,,,
4.647101176,I2C,Setup Write to [0x69] + ACK,,,,,,,,
4.64712888,I2C,0x2D + ACK,,,,,,,,
4.647162816,I2C,Setup Read to [0x69] + ACK,,,,,,,,
4.647189444,I2C,0xFF + ACK,,,,,,,,
4.6472172,I2C,0x10 + ACK,,,,,,,,
4.647244952,I2C,0xFF + ACK,,,,,,,,
4.647272704,I2C,0xB8 + ACK,,,,,,,,
4.647300456,I2C,0x41 + ACK,,,,,,,,
4.647328212,I2C,0x38 + ACK,,,,,,,,
4.64735596,I2C,0xFF + ACK,,,,,,,,
4.647383712,I2C,0x80 + ACK,,,,,,,,
4.647411464,I2C,0xFF + ACK,,,,,,,,
4.647439216,I2C,0xFE + ACK,,,,,,,,
4.647466968,I2C,0xFE + ACK,,,,,,,,
4.64749472,I2C,0xF0 + ACK,,,,,,,,
4.647522476,I2C,0x04 + ACK,,,,,,,,
4.647550288,I2C,0x80 + NAK,,,,,,,,
4.647678348,I2C,Setup Write to [0x69] + ACK,,,,,,,,
4.647706112,I2C,0x7F + ACK,,,,,,,,
4.647733304,I2C,0x20 + ACK,,,,,,,,
4.64779142,I2C,Setup Write to [0x69] + ACK,,,,,,,,
4.647819184,I2C,0x14 + ACK,,,,,,,,
4.64785312,I2C,Setup Read to [0x69] + ACK,,,,,,,,
4.647879816,I2C,0x38 + NAK,,,,,,,,
4.647955368,I2C,Setup Write to [0x69] + ACK,,,,,,,,
4.647983072,I2C,0x7F + ACK,,,,,,,,
4.64801026,I2C,0x20 + ACK,,,,,,,,
4.64806838,I2C,Setup Write to [0x69] + ACK,,,,,,,,
4.648096144,I2C,0x01 + ACK,,,,,,,,
4.64813008,I2C,Setup Read to [0x69] + ACK,,,,,,,,
4.648156772,I2C,0x38 + NAK,,,,,,,,
4.648222328,I2C,Setup Write to [0x69] + ACK,,,,,,,,
4.648250092,I2C,0x15 + ACK,,,,,,,,
4.648283844,I2C,Setup Read to [0x69] + ACK,,,,,,,,
4.648310536,I2C,0x00 + NAK,,,,,,,,
4.648374904,I2C,Setup Write to [0x0C] + NAK,,,,,,,,
4.648419412,I2C,Setup Read to [0x0C] + NAK,,,,,,,,
4.687450736,I2C,Setup Write to [0x69] + ACK,,,,,,,,
4.6874785,I2C,0x7F + ACK,,,,,,,,
4.687505688,I2C,0x00 + ACK,,,,,,,,
4.687563868,I2C,Setup Write to [0x69] + ACK,,,,,,,,
4.687591636,I2C,0x1A + ACK,,,,,,,,
4.687625572,I2C,Setup Read to [0x69] + ACK,,,,,,,,
4.687652268,I2C,0x01 + NAK,,,,,,,,
4.68772788,I2C,Setup Write to [0x69] + ACK,,,,,,,,
4.687755648,I2C,0x7F + ACK,,,,,,,,
4.687782836,I2C,0x00 + ACK,,,,,,,,
4.687840956,I2C,Setup Write to [0x69] + ACK,,,,,,,,
4.687868656,I2C,0x2D + ACK,,,,,,,,
4.687902592,I2C,Setup Read to [0x69] + ACK,,,,,,,,
4.687929224,I2C,0xFF + ACK,,,,,,,,
4.68795698,I2C,0x18 + ACK,,,,,,,,
4.687984728,I2C,0xFF + ACK,,,,,,,,
4.688012484,I2C,0x50 + ACK,,,,,,,,
4.688040236,I2C,0x40 + ACK,,,,,,,,
4.688067984,I2C,0xB0 + ACK,,,,,,,,
4.688095736,I2C,0xFF + ACK,,,,,,,,
4.688123492,I2C,0x4A + ACK,,,,,,,,
4.68815124,I2C,0xFF + ACK,,,,,,,,
4.688178992,I2C,0xA6 + ACK,,,,,,,,
4.688206748,I2C,0x00 + ACK,,,,,,,,
4.6882345,I2C,0x38 + ACK,,,,,,,,
4.688262252,I2C,0x04 + ACK,,,,,,,,
4.688290064,I2C,0xB0 + NAK,,,,,,,,
4.688418124,I2C,Setup Write to [0x69] + ACK,,,,,,,,
4.688445888,I2C,0x7F + ACK,,,,,,,,
4.68847308,I2C,0x20 + ACK,,,,,,,,
4.688531196,I2C,Setup Write to [0x69] + ACK,,,,,,,,
4.68855896,I2C,0x14 + ACK,,,,,,,,
4.688592896,I2C,Setup Read to [0x69] + ACK,,,,,,,,
4.688619592,I2C,0x38 + NAK,,,,,,,,
4.688695144,I2C,Setup Write to [0x69] + ACK,,,,,,,,
4.688722848,I2C,0x7F + ACK,,,,,,,,
4.68875004,I2C,0x20 + ACK,,,,,,,,
4.688808156,I2C,Setup Write to [0x69] + ACK,,,,,,,,
4.68883592,I2C,0x01 + ACK,,,,,,,,
4.688869856,I2C,Setup Read to [0x69] + ACK,,,,,,,,
4.688896548,I2C,0x38 + NAK,,,,,,,,
4.688962104,I2C,Setup Write to [0x69] + ACK,,,,,,,,
4.688989872,I2C,0x15 + ACK,,,,,,,,
4.689023808,I2C,Setup Read to [0x69] + ACK,,,,,,,,
4.6890505,I2C,0x00 + NAK,,,,,,,,
4.689114868,I2C,Setup Write to [0x0C] + NAK,,,,,,,,
4.689159376,I2C,Setup Read to [0x0C] + NAK,,,,,,,,
4.728189388,I2C,Setup Write to [0x69] + ACK,,,,,,,,
4.728217156,I2C,0x7F + ACK,,,,,,,,
4.728244344,I2C,0x00 + ACK,,,,,,,,
4.72830252,I2C,Setup Write to [0x69] + ACK,,,,,,,,
4.728330288,I2C,0x1A + ACK,,,,,,,,
4.728364036,I2C,Setup Read to [0x69] + ACK,,,,,,,,
4.728390732,I2C,0x01 + NAK,,,,,,,,
4.728466348,I2C,Setup Write to [0x69] + ACK,,,,,,,,
4.728494112,I2C,0x7F + ACK,,,,,,,,
4.7285213,I2C,0x00 + ACK,,,,,,,,
4.72857942,I2C,Setup Write to [0x69] + ACK,,,,,,,,
4.72860712,I2C,0x2D + ACK,,,,,,,,
4.72864106,I2C,Setup Read to [0x69] + ACK,,,,,,,,
4.728667688,I2C,0xFE + ACK,,,,,,,,
4.72869544,I2C,0xC0 + ACK,,,,,,,,
4.728723196,I2C,0xFF + ACK,,,,,,,,
4.728750948,I2C,0xA0 + ACK,,,,,,,,
4.7287787,I2C,0x40 + ACK,,,,,,,,
4.728806452,I2C,0x48 + ACK,,,,,,,,
4.7288342,I2C,0xFF + ACK,,,,,,,,
4.728861952,I2C,0x86 + ACK,,,,,,,,
4.728889708,I2C,0xFE + ACK,,,,,,,,
4.72891746,I2C,0x88 + ACK,,,,,,,,
4.728945212,I2C,0x00 + ACK,,,,,,,,
4.728972964,I2C,0xBB + ACK,,,,,,,,
4.729000716,I2C,0x04 + ACK,,,,,,,,
4.729028528,I2C,0xD0 + NAK,,,,,,,,
4.72916166,I2C,Setup Write to [0x69] + ACK,,,,,,,,
4.729189356,I2C,0x7F + ACK,,,,,,,,
4.729216544,I2C,0x20 + ACK,,,,,,,,
4.72927466,I2C,Setup Write to [0x69] + ACK,,,,,,,,
4.729302428,I2C,0x14 + ACK,,,,,,,,
4.729336364,I2C,Setup Read to [0x69] + ACK,,,,,,,,
4.729363056,I2C,0x38 + NAK,,,,,,,,
4.729438612,I2C,Setup Write to [0x69] + ACK,,,,,,,,
4.729466316,I2C,0x7F + ACK,,,,,,,,
4.729493504,I2C,0x20 + ACK,,,,,,,,
4.729551624,I2C,Setup Write to [0x69] + ACK,,,,,,,,
4.729579384,I2C,0x01 + ACK,,,,,,,,
4.729613324,I2C,Setup Read to [0x69] + ACK,,,,,,,,
4.729640016,I2C,0x38 + NAK,,,,,,,,
4.729705568,I2C,Setup Write to [0x69] + ACK,,,,,,,,
4.729733336,I2C,0x15 + ACK,,,,,,,,
4.729767272,I2C,Setup Read to [0x69] + ACK,,,,,,,,
4.729793968,I2C,0x00 + NAK,,,,,,,,
4.729858336,I2C,Setup Write to [0x0C] + NAK,,,,,,,,
4.72990284,I2C,Setup Read to [0x0C] + NAK,,,,,,,,
4.768937852,I2C,Setup Write to [0x69] + ACK,,,,,,,,
4.76896562,I2C,0x7F + ACK,,,,,,,,
4.768992812,I2C,0x00 + ACK,,,,,,,,
4.769050988,I2C,Setup Write to [0x69] + ACK,,,,,,,,
4.769078756,I2C,0x1A + ACK,,,,,,,,
4.769112628,I2C,Setup Read to [0x69] + ACK,,,,,,,,
4.76913932,I2C,0x01 + NAK,,,,,,,,
4.76921494,I2C,Setup Write to [0x69] + ACK,,,,,,,,
4.769242704,I2C,0x7F + ACK,,,,,,,,
4.769269892,I2C,0x00 + ACK,,,,,,,,
4.769328012,I2C,Setup Write to [0x69] + ACK,,,,,,,,
4.769355712,I2C,0x2D + ACK,,,,,,,,
4.769389648,I2C,Setup Read to [0x69] + ACK,,,,,,,,
4.76941628,I2C,0xFF + ACK,,,,,,,,
4.769444036,I2C,0x58 + ACK,,,,,,,,
4.769471784,I2C,0xFF + ACK,,,,,,,,
4.76949954,I2C,0x40 + ACK,,,,,,,,
4.769527292,I2C,0x40 + ACK,,,,,,,,
4.769555044,I2C,0x28 + ACK,,,,,,,,
4.769582792,I2C,0xFF + ACK,,,,,,,,
4.769610548,I2C,0x3A + ACK,,,,,,,,
4.7696383,I2C,0x01 + ACK,,,,,,,,
4.769666052,I2C,0x87 + ACK,,,,,,,,
4.7696938,I2C,0xFF + ACK,,,,,,,,
4.769721552,I2C,0x8D + ACK,,,,,,,,
4.769749308,I2C,0x04 + ACK,,,,,,,,
4.76977712,I2C,0xA0 + NAK,,,,,,,,
4.76990524,I2C,Setup Write to [0x69] + ACK,,,,,,,,
4.769933008,I2C,0x7F + ACK,,,,,,,,
4.769960196,I2C,0x20 + ACK,,,,,,,,
4.770018316,I2C,Setup Write to [0x69] + ACK,,,,,,,,
4.77004608,I2C,0x14 + ACK,,,,,,,,
4.770079828,I2C,Setup Read to [0x69] + ACK,,,,,,,,
4.77010652,I2C,0x38 + NAK,,,,,,,,
4.770180888,I2C,Setup Write to [0x69] + ACK,,,,,,,,
4.770208656,I2C,0x7F + ACK,,,,,,,,
4.770235844,I2C,0x20 + ACK,,,,,,,,
4.77029396,I2C,Setup Write to [0x69] + ACK,,,,,,,,
4.770321728,I2C,0x01 + ACK,,,,,,,,
4.770355664,I2C,Setup Read to [0x69] + ACK,,,,,,,,
4.770382356,I2C,0x38 + NAK,,,,,,,,
4.770447912,I2C,Setup Write to [0x69] + ACK,,,,,,,,
4.770475676,I2C,0x15 + ACK,,,,,,,,
4.770509612,I2C,Setup Read to [0x69] + ACK,,,,,,,,
4.770536304,I2C,0x00 + NAK,,,,,,,,
4.770600676,I2C,Setup Write to [0x0C] + NAK,,,,,,,,
4.77064518,I2C,Setup Read to [0x0C] + NAK,,,,,,,,
4.809673944,I2C,Setup Write to [0x69] + ACK,,,,,,,,
4.809701708,I2C,0x7F + ACK,,,,,,,,
4.8097289,I2C,0x00 + ACK,,,,,,,,
4.80978708,I2C,Setup Write to [0x69] + ACK,,,,,,,,
4.809814844,I2C,0x1A + ACK,,,,,,,,
4.80984878,I2C,Setup Read to [0x69] + ACK,,,,,,,,
4.809875472,I2C,0x01 + NAK,,,,,,,,
4.809951092,I2C,Setup Write to [0x69] + ACK,,,,,,,,
4.809978856,I2C,0x7F + ACK,,,,,,,,
4.810006044,I2C,0x00 + ACK,,,,,,,,
4.810070476,I2C,Setup Write to [0x69] + ACK,,,,,,,,
4.81009824,I2C,0x2D + ACK,,,,,,,,
4.81013218,I2C,Setup Read to [0x69] + ACK,,,,,,,,
4.810158808,I2C,0xFF + ACK,,,,,,,,
4.810186564,I2C,0x70 + ACK,,,,,,,,
4.810214312,I2C,0xFF + ACK,,,,,,,,
4.810242064,I2C,0x90 + ACK,,,,,,,,
4.81026982,I2C,0x41 + ACK,,,,,,,,
4.810297568,I2C,0x20 + ACK,,,,,,,,
4.81032532,I2C,0xFF + ACK,,,,,,,,
4.810353076,I2C,0x25 + ACK,,,,,,,,
4.810380828,I2C,0x00 + ACK,,,,,,,,
4.810408576,I2C,0xD3 + ACK,,,,,,,,
4.810436332,I2C,0xFF + ACK,,,,,,,,
4.810464084,I2C,0x43 + ACK,,,,,,,,
4.81049184,I2C,0x04 + ACK,,,,,,,,
4.810519648,I2C,0xF0 + NAK,,,,,,,,
4.810647768,I2C,Setup Write to [0x69] + ACK,,,,,,,,
4.810675536,I2C,0x7F + ACK,,,,,,,,
4.810702724,I2C,0x20 + ACK,,,,,,,,
4.810760844,I2C,Setup Write to [0x69] + ACK,,,,,,,,
4.810788608,I2C,0x14 + ACK,,,,,,,,
4.810822356,I2C,Setup Read to [0x69] + ACK,,,,,,,,
4.810849048,I2C,0x38 + NAK,,,,,,,,
4.810924604,I2C,Setup Write to [0x69] + ACK,,,,,,,,
4.810952308,I2C,0x7F + ACK,,,,,,,,
4.810979496,I2C,0x20 + ACK,,,,,,,,
4.811037612,I2C,Setup Write to [0x69] + ACK,,,,,,,,
4.81106538,I2C,0x01 + ACK,,,,,,,,
4.811099128,I2C,Setup Read to [0x69] + ACK,,,,,,,,
4.81112582,I2C,0x38 + NAK,,,,,,,,
4.811191376,I2C,Setup Write to [0x69] + ACK,,,,,,,,
4.81121914,I2C,0x15 + ACK,,,,,,,,
4.811253076,I2C,Setup Read to [0x69] + ACK,,,,,,,,
4.811279772,I2C,0x00 + NAK,,,,,,,,
4.81134414,I2C,Setup Write to [0x0C] + NAK,,,,,,,,
4.811388648,I2C,Setup Read to [0x0C] + NAK,,,,,,,,
4.850419972,I2C,Setup Write to [0x69] + ACK,,,,,,,,
4.85044774,I2C,0x7F + ACK,,,,,,,,
4.850474928,I2C,0x00 + ACK,,,,,,,,
4.850533108,I2C,Setup Write to [0x69] + ACK,,,,,,,,
4.850560872,I2C,0x1A + ACK,,,,,,,,
4.85059462,I2C,Setup Read to [0x69] + ACK,,,,,,,,
4.850621316,I2C,0x01 + NAK,,,,,,,,
4.850696932,I2C,Setup Write to [0x69] + ACK,,,,,,,,
4.850724696,I2C,0x7F + ACK,,,,,,,,
4.850751884,I2C,0x00 + ACK,,,,,,,,
4.85081,I2C,Setup Write to [0x69] + ACK,,,,,,,,
4.850837704,I2C,0x2D + ACK,,,,,,,,
4.850871644,I2C,Setup Read to [0x69] + ACK,,,,,,,,
4.850898272,I2C,0xFF + ACK,,,,,,,,
4.850926028,I2C,0x40 + ACK,,,,,,,,
4.850953776,I2C,0xFF + ACK,,,,,,,,
4.850981528,I2C,0xE8 + ACK,,,,,,,,
4.85100928,I2C,0x3F + ACK,,,,,,,,
4.851037032,I2C,0xD0 + ACK,,,,,,,,
4.851064784,I2C,0xFE + ACK,,,,,,,,
4.851092536,I2C,0xF4 + ACK,,,,,,,,
4.851120292,I2C,0x00 + ACK,,,,,,,,
4.851148048,I2C,0x1B + ACK,,,,,,,,
4.851175796,I2C,0xFE + ACK,,,,,,,,
4.851203552,I2C,0x2C + ACK,,,,,,,,
4.8512313,I2C,0x04 + ACK,,,,,,,,
4.851259112,I2C,0xF0 + NAK,,,,,,,,
4.851387172,I2C,Setup Write to [0x69] + ACK,,,,,,,,
4.851414936,I2C,0x7F + ACK,,,,,,,,
4.851442128,I2C,0x20 + ACK,,,,,,,,
4.851500244,I2C,Setup Write to [0x69] + ACK,,,,,,,,
4.851528012,I2C,0x14 + ACK,,,,,,,,
4.851561948,I2C,Setup Read to [0x69] + ACK,,,,,,,,
4.851588644,I2C,0x38 + NAK,,,,,,,,
4.851664196,I2C,Setup Write to [0x69] + ACK,,,,,,,,
4.8516919,I2C,0x7F + ACK,,,,,,,,
4.851719088,I2C,0x20 + ACK,,,,,,,,
4.851777204,I2C,Setup Write to [0x69] + ACK,,,,,,,,
4.851804968,I2C,0x01 + ACK,,,,,,,,
4.851838904,I2C,Setup Read to [0x69] + ACK,,,,,,,,
4.8518656,I2C,0x38 + NAK,,,,,,,,
4.851931152,I2C,Setup Write to [0x69] + ACK,,,,,,,,
4.85195892,I2C,0x15 + ACK,,,,,,,,
4.851992856,I2C,Setup Read to [0x69] + ACK,,,,,,,,
4.852019548,I2C,0x00 + NAK,,,,,,,,
4.85208892,I2C,Setup Write to [0x0C] + NAK,,,,,,,,
4.852133488,I2C,Setup Read to [0x0C] + NAK,,,,,,,,
4.891164812,I2C,Setup Write to [0x69] + ACK,,,,,,,,
4.891192516,I2C,0x7F + ACK,,,,,,,,
4.891219704,I2C,0x00 + ACK,,,,,,,,
4.891277884,I2C,Setup Write to [0x69] + ACK,,,,,,,,
4.891305652,I2C,0x1A + ACK,,,,,,,,
4.891339588,I2C,Setup Read to [0x69] + ACK,,,,,,,,
4.89136628,I2C,0x01 + NAK,,,,,,,,
4.891441896,I2C,Setup Write to [0x69] + ACK,,,,,,,,
4.891469664,I2C,0x7F + ACK,,,,,,,,
4.891496852,I2C,0x00 + ACK,,,,,,,,
4.891554968,I2C,Setup Write to [0x69] + ACK,,,,,,,,
4.891582668,I2C,0x2D + ACK,,,,,,,,
4.891616608,I2C,Setup Read to [0x69] + ACK,,,,,,,,
4.891643236,I2C,0xFE + ACK,,,,,,,,
4.891670992,I2C,0xF8 + ACK,,,,,,,,
4.891698744,I2C,0xFE + ACK,,,,,,,,
4.891726496,I2C,0xB8 + ACK,,,,,,,,
4.891754252,I2C,0x41 + ACK,,,,,,,,
4.891782004,I2C,0x30 + ACK,,,,,,,,
4.891809752,I2C,0xFF + ACK,,,,,,,,
4.891837508,I2C,0x31 + ACK,,,,,,,,
4.891865256,I2C,0xFE + ACK,,,,,,,,
4.891893008,I2C,0x9E + ACK,,,,,,,,
4.891920764,I2C,0x00 + ACK,,,,,,,,
4.891948516,I2C,0x67 + ACK,,,,,,,,
4.891976264,I2C,0x04 + ACK,,,,,,,,
4.89200408,I2C,0xF0 + NAK,,,,,,,,
4.89213214,I2C,Setup Write to [0x69] + ACK,,,,,,,,
4.892159908,I2C,0x7F + ACK,,,,,,,,
4.892187096,I2C,0x20 + ACK,,,,,,,,
4.892245208,I2C,Setup Write to [0x69] + ACK,,,,,,,,
4.892272976,I2C,0x14 + ACK,,,,,,,,
4.892306912,I2C,Setup Read to [0x69] + ACK,,,,,,,,
4.892333608,I2C,0x38 + NAK,,,,,,,,
4.89240916,I2C,Setup Write to [0x69] + ACK,,,,,,,,
4.892436864,I2C,0x7F + ACK,,,,,,,,
4.892464052,I2C,0x20 + ACK,,,,,,,,
4.892522172,I2C,Setup Write to [0x69] + ACK,,,,,,,,
4.892549936,I2C,0x01 + ACK,,,,,,,,
4.892583872,I2C,Setup Read to [0x69] + ACK,,,,,,,,
4.892610564,I2C,0x38 + NAK,,,,,,,,
4.89267612,I2C,Setup Write to [0x69] + ACK,,,,,,,,
4.892703884,I2C,0x15 + ACK,,,,,,,,
4.892737824,I2C,Setup Read to [0x69] + ACK,,,,,,,,
4.892764516,I2C,0x00 + NAK,,,,,,,,
4.89282888,I2C,Setup Write to [0x0C] + NAK,,,,,,,,
4.892873392,I2C,Setup Read to [0x0C] + NAK,,,,,,,,
4.931905904,I2C,Setup Write to [0x69] + ACK,,,,,,,,
4.931933604,I2C,0x7F + ACK,,,,,,,,
4.931960796,I2C,0x00 + ACK,,,,,,,,
4.932018976,I2C,Setup Write to [0x69] + ACK,,,,,,,,
4.93204674,I2C,0x1A + ACK,,,,,,,,
4.932080492,I2C,Setup Read to [0x69] + ACK,,,,,,,,
4.932107184,I2C,0x01 + NAK,,,,,,,,
4.9321828,I2C,Setup Write to [0x69] + ACK,,,,,,,,
4.932210564,I2C,0x7F + ACK,,,,,,,,
4.932237752,I2C,0x00 + ACK,,,,,,,,
4.932295872,I2C,Setup Write to [0x69] + ACK,,,,,,,,
4.932323576,I2C,0x2D + ACK,,,,,,,,
4.932357508,I2C,Setup Read to [0x69] + ACK,,,,,,,,
4.93238414,I2C,0xFF + ACK,,,,,,,,
4.932411896,I2C,0x88 + ACK,,,,,,,,
4.932439648,I2C,0x00 + ACK,,,,,,,,
4.9324674,I2C,0x08 + ACK,,,,,,,,
4.932495152,I2C,0x41 + ACK,,,,,,,,
4.932522904,I2C,0x00 + ACK,,,,,,,,
4.932550656,I2C,0x00 + ACK,,,,,,,,
4.932578408,I2C,0x1D + ACK,,,,,,,,
4.93260616,I2C,0xFF + ACK,,,,,,,,
4.932633916,I2C,0x2D + ACK,,,,,,,,
4.932661664,I2C,0x00 + ACK,,,,,,,,
4.932689416,I2C,0x06 + ACK,,,,,,,,
4.932717168,I2C,0x04 + ACK,,,,,,,,
4.93274498,I2C,0xF0 + NAK,,,,,,,,
4.932873104,I2C,Setup Write to [0x69] + ACK,,,,,,,,
4.932900872,I2C,0x7F + ACK,,,,,,,,
4.93292806,I2C,0x20 + ACK,,,,,,,,
4.932986112,I2C,Setup Write to [0x69] + ACK,,,,,,,,
4.93301388,I2C,0x14 + ACK,,,,,,,,
4.933047816,I2C,Setup Read to [0x69] + ACK,,,,,,,,
4.933074508,I2C,0x38 + NAK,,,,,,,,
4.933150064,I2C,Setup Write to [0x69] + ACK,,,,,,,,
4.933177764,I2C,0x7F + ACK,,,,,,,,
4.933204956,I2C,0x20 + ACK,,,,,,,,
4.933263072,I2C,Setup Write to [0x69] + ACK,,,,,,,,
4.93329084,I2C,0x01 + ACK,,,,,,,,
4.933324776,I2C,Setup Read to [0x69] + ACK,,,,,,,,
4.933351468,I2C,0x38 + NAK,,,,,,,,
4.93341702,I2C,Setup Write to [0x69] + ACK,,,,,,,,
4.933444788,I2C,0x15 + ACK,,,,,,,,
4.933478724,I2C,Setup Read to [0x69] + ACK,,,,,,,,
4.93350542,I2C,0x00 + NAK,,,,,,,,
4.933569784,I2C,Setup Write to [0x0C] + NAK,,,,,,,,
4.933614292,I2C,Setup Read to [0x0C] + NAK,,,,,,,,
4.972646804,I2C,Setup Write to [0x69] + ACK,,,,,,,,
4.972674572,I2C,0x7F + ACK,,,,,,,,
4.97270176,I2C,0x00 + ACK,,,,,,,,
4.97275994,I2C,Setup Write to [0x69] + ACK,,,,,,,,
4.972787704,I2C,0x1A + ACK,,,,,,,,
4.972821456,I2C,Setup Read to [0x69] + ACK,,,,,,,,
4.972848148,I2C,0x01 + NAK,,,,,,,,
4.972928764,I2C,Setup Write to [0x69] + ACK,,,,,,,,
4.972956532,I2C,0x7F + ACK,,,,,,,,
4.97298372,I2C,0x00 + ACK,,,,,,,,
4.9730419,I2C,Setup Write to [0x69] + ACK,,,,,,,,
4.973069664,I2C,0x2D + ACK,,,,,,,,
4.9731036,I2C,Setup Read to [0x69] + ACK,,,,,,,,
4.973130228,I2C,0xFF + ACK,,,,,,,,
4.973157988,I2C,0x60 + ACK,,,,,,,,
4.973185736,I2C,0xFF + ACK,,,,,,,,
4.973213488,I2C,0x98 + ACK,,,,,,,,
4.973241244,I2C,0x40 + ACK,,,,,,,,
4.973268992,I2C,0xB8 + ACK,,,,,,,,
4.973296744,I2C,0xFD + ACK,,,,,,,,
4.973324496,I2C,0xD0 + ACK,,,,,,,,
4.973352252,I2C,0x00 + ACK,,,,,,,,
4.97338,I2C,0x61 + ACK,,,,,,,,
4.973407752,I2C,0xFE + ACK,,,,,,,,
4.973435504,I2C,0xAE + ACK,,,,,,,,
4.97346326,I2C,0x05 + ACK,,,,,,,,
4.973491076,I2C,0x20 + NAK,,,,,,,,
4.973619192,I2C,Setup Write to [0x69] + ACK,,,,,,,,
4.97364696,I2C,0x7F + ACK,,,,,,,,
4.973674148,I2C,0x20 + ACK,,,,,,,,
4.973732268,I2C,Setup Write to [0x69] + ACK,,,,,,,,
4.973760032,I2C,0x14 + ACK,,,,,,,,
4.97379378,I2C,Setup Read to [0x69] + ACK,,,,,,,,
4.973820472,I2C,0x38 + NAK,,,,,,,,
4.973896032,I2C,Setup Write to [0x69] + ACK,,,,,,,,
4.973923732,I2C,0x7F + ACK,,,,,,,,
4.97395092,I2C,0x20 + ACK,,,,,,,,
4.97400904,I2C,Setup Write to [0x69] + ACK,,,,,,,,
4.974036804,I2C,0x01 + ACK,,,,,,,,
4.974070552,I2C,Setup Read to [0x69] + ACK,,,,,,,,
4.974097248,I2C,0x38 + NAK,,,,,,,,
4.974162796,I2C,Setup Write to [0x69] + ACK,,,,,,,,
4.974190568,I2C,0x15 + ACK,,,,,,,,
4.9742245,I2C,Setup Read to [0x69] + ACK,,,,,,,,
4.974251196,I2C,0x00 + NAK,,,,,,,,
4.974315564,I2C,Setup Write to [0x0C] + NAK,,,,,,,,
4.974360072,I2C,Setup Read to [0x0C] + NAK,,,,,,,,
